Freq.	V(vo)
1.00000000000000e+002	(-1.76980118861839e-001dB,9.13699882644089e+000°)
1.02329299228075e+002	(-1.72527053057441e-001dB,8.93185427195824e+000°)
1.04712854805090e+002	(-1.68270407886083e-001dB,8.73119274818525e+000°)
1.07151930523761e+002	(-1.64201688973832e-001dB,8.53492435888460e+000°)
1.09647819614318e+002	(-1.60312754573429e-001dB,8.34296047591282e+000°)
1.12201845430196e+002	(-1.56595802208445e-001dB,8.15521375881973e+000°)
1.14815362149688e+002	(-1.53043355709503e-001dB,7.97159817113235e+000°)
1.17489755493953e+002	(-1.49648252641794e-001dB,7.79202899355195e+000°)
1.20226443461741e+002	(-1.46403632121799e-001dB,7.61642283428228e+000°)
1.23026877081238e+002	(-1.43302923020062e-001dB,7.44469763669502e+000°)
1.25892541179417e+002	(-1.40339832545946e-001dB,7.27677268452754e+000°)
1.28824955169313e+002	(-1.37508335209328e-001dB,7.11256860479778e+000°)
1.31825673855641e+002	(-1.34802662153515e-001dB,6.95200736861044e+000°)
1.34896288259165e+002	(-1.32217290853111e-001dB,6.79501229001938e+000°)
1.38038426460288e+002	(-1.29746935169857e-001dB,6.64150802310055e+000°)
1.41253754462275e+002	(-1.27386535759119e-001dB,6.49142055738224e+000°)
1.44543977074593e+002	(-1.25131250819363e-001dB,6.34467721176920e+000°)
1.47910838816821e+002	(-1.22976447176497e-001dB,6.20120662708996e+000°)
1.51356124843621e+002	(-1.20917691694953e-001dB,6.06093875738843e+000°)
1.54881661891248e+002	(-1.18950743006904e-001dB,5.92380486007284e+000°)
1.58489319246111e+002	(-1.17071543551173e-001dB,5.78973748502891e+000°)
1.62181009735893e+002	(-1.15276211913094e-001dB,5.65867046279626e+000°)
1.65958690743756e+002	(-1.13561035456674e-001dB,5.53053889190129e+000°)
1.69824365246174e+002	(-1.11922463240257e-001dB,5.40527912543350e+000°)
1.73780082874937e+002	(-1.10357099207132e-001dB,5.28282875694608e+000°)
1.77827941003892e+002	(-1.08861695642292e-001dB,5.16312660575675e+000°)
1.81970085860998e+002	(-1.07433146886898e-001dB,5.04611270171878e+000°)
1.86208713666287e+002	(-1.06068483301968e-001dB,4.93172826952829e+000°)
1.90546071796324e+002	(-1.04764865472875e-001dB,4.81991571262823e+000°)
1.94984459975804e+002	(-1.03519578646590e-001dB,4.71061859676567e+000°)
1.99526231496888e+002	(-1.02330027393404e-001dB,4.60378163325553e+000°)
2.04173794466953e+002	(-1.01193730485460e-001dB,4.49935066199840e+000°)
2.08929613085404e+002	(-1.00108315984164e-001dB,4.39727263429785e+000°)
2.13796208950223e+002	(-9.90715165290431e-002dB,4.29749559551929e+000°)
2.18776162394955e+002	(-9.80811648206469e-002dB,4.19996866762799e+000°)
2.23872113856834e+002	(-9.71351892902525e-002dB,4.10464203164232e+000°)
2.29086765276777e+002	(-9.62316099494932e-002dB,4.01146691003440e+000°)
2.34422881531992e+002	(-9.53685344130083e-002dB,3.92039554910841e+000°)
2.39883291901949e+002	(-9.45441540875279e-002dB,3.83138120138401e+000°)
2.45470891568503e+002	(-9.37567405210741e-002dB,3.74437810801009e+000°)
2.51188643150958e+002	(-9.30046419059500e-002dB,3.65934148123170e+000°)
2.57039578276886e+002	(-9.22862797295469e-002dB,3.57622748693189e+000°)
2.63026799189538e+002	(-9.16001455671852e-002dB,3.49499322726694e+000°)
2.69153480392691e+002	(-9.09447980112666e-002dB,3.41559672341259e+000°)
2.75422870333816e+002	(-9.03188597314079e-002dB,3.33799689843760e+000°)
2.81838293126445e+002	(-8.97210146601661e-002dB,3.26215356031824e+000°)
2.88403150312660e+002	(-8.91500052993823e-002dB,3.18802738510709e+000°)
2.95120922666638e+002	(-8.86046301422328e-002dB,3.11557990026735e+000°)
3.01995172040201e+002	(-8.80837412061520e-002dB,3.04477346818341e+000°)
3.09029543251358e+002	(-8.75862416722472e-002dB,2.97557126985680e+000°)
3.16227766016837e+002	(-8.71110836267204e-002dB,2.90793728879490e+000°)
3.23593656929628e+002	(-8.66572659000328e-002dB,2.84183629510123e+000°)
3.31131121482590e+002	(-8.62238319998326e-002dB,2.77723382977167e+000°)
3.38844156139202e+002	(-8.58098681337207e-002dB,2.71409618920399e+000°)
3.46736850452531e+002	(-8.54145013180612e-002dB,2.65239040992317e+000°)
3.54813389233575e+002	(-8.50368975691810e-002dB,2.59208425352883e+000°)
3.63078054770101e+002	(-8.46762601736228e-002dB,2.53314619186584e+000°)
3.71535229097172e+002	(-8.43318280339409e-002dB,2.47554539242254e+000°)
3.80189396320560e+002	(-8.40028740869531e-002dB,2.41925170395745e+000°)
3.89045144994280e+002	(-8.36887037913033e-002dB,2.36423564235670e+000°)
3.98107170553496e+002	(-8.33886536814253e-002dB,2.31046837672286e+000°)
4.07380277804112e+002	(-8.31020899850056e-002dB,2.25792171569674e+000°)
4.16869383470335e+002	(-8.28284073012746e-002dB,2.20656809401069e+000°)
4.26579518801592e+002	(-8.25670273375150e-002dB,2.15638055927541e+000°)
4.36515832240165e+002	(-8.23173977012289e-002dB,2.10733275899793e+000°)
4.46683592150962e+002	(-8.20789907456056e-002dB,2.05939892783168e+000°)
4.57088189614874e+002	(-8.18513024659807e-002dB,2.01255387505578e+000°)
4.67735141287197e+002	(-8.16338514450376e-002dB,1.96677297228458e+000°)
4.78630092322637e+002	(-8.14261778447185e-002dB,1.92203214140329e+000°)
4.89778819368445e+002	(-8.12278424427304e-002dB,1.87830784273054e+000°)
5.01187233627271e+002	(-8.10384257117257e-002dB,1.83557706340368e+000°)
5.12861383991364e+002	(-8.08575269393286e-002dB,1.79381730598704e+000°)
5.24807460249771e+002	(-8.06847633871972e-002dB,1.75300657729834e+000°)
5.37031796370251e+002	(-8.05197694874332e-002dB,1.71312337745326e+000°)
5.49540873857623e+002	(-8.03621960746323e-002dB,1.67414668912469e+000°)
5.62341325190348e+002	(-8.02117096521563e-002dB,1.63605596701309e+000°)
5.75439937337155e+002	(-8.00679916909550e-002dB,1.59883112752746e+000°)
5.88843655355587e+002	(-7.99307379596447e-002dB,1.56245253867210e+000°)
6.02559586074356e+002	(-7.97996578843588e-002dB,1.52690101013783e+000°)
6.16595001861481e+002	(-7.96744739372008e-002dB,1.49215778359318e+000°)
6.30957344480192e+002	(-7.95549210518486e-002dB,1.45820452317502e+000°)
6.45654229034654e+002	(-7.94407460652647e-002dB,1.42502330617273e+000°)
6.60693448007594e+002	(-7.93317071843348e-002dB,1.39259661390523e+000°)
6.76082975391980e+002	(-7.92275734762354e-002dB,1.36090732278649e+000°)
6.91830970918935e+002	(-7.91281243816022e-002dB,1.32993869557782e+000°)
7.07945784384136e+002	(-7.90331492494529e-002dB,1.29967437282144e+000°)
7.24435960074988e+002	(-7.89424468928063e-002dB,1.27009836445536e+000°)
7.41310241300916e+002	(-7.88558251642616e-002dB,1.24119504160412e+000°)
7.58577575029182e+002	(-7.87731005504711e-002dB,1.21294912854282e+000°)
7.76247116628690e+002	(-7.86940977847734e-002dB,1.18534569483272e+000°)
7.94328234724279e+002	(-7.86186494771770e-002dB,1.15837014762341e+000°)
8.12830516164097e+002	(-7.85465957608374e-002dB,1.13200822411971e+000°)
8.31763771102669e+002	(-7.84777839544453e-002dB,1.10624598420965e+000°)
8.51138038202374e+002	(-7.84120682396298e-002dB,1.08106980325185e+000°)
8.70963589956078e+002	(-7.83493093528679e-002dB,1.05646636501665e+000°)
8.91250938133743e+002	(-7.82893742911950e-002dB,1.03242265478137e+000°)
9.12010839355907e+002	(-7.82321360310427e-002dB,1.00892595257420e+000°)
9.33254300796988e+002	(-7.81774732597371e-002dB,9.85963826564832e-001°)
9.54992586021433e+002	(-7.81252701190126e-002dB,9.63524126598764e-001°)
9.77237220955808e+002	(-7.80754159599801e-002dB,9.41594977872909e-001°)
9.99999999999997e+002	(-7.80278051091404e-002dB,9.20164774749483e-001°)
1.02329299228075e+003	(-7.79823366448556e-002dB,8.99222174704414e-001°)
1.04712854805090e+003	(-7.79389141838506e-002dB,8.78756092409422e-001°)
1.07151930523760e+003	(-7.78974456772925e-002dB,8.58755693943649e-001°)
1.09647819614318e+003	(-7.78578432160176e-002dB,8.39210391132205e-001°)
1.12201845430196e+003	(-7.78200228445034e-002dB,8.20109836010702e-001°)
1.14815362149688e+003	(-7.77839043831777e-002dB,8.01443915410529e-001°)
1.17489755493953e+003	(-7.77494112587026e-002dB,7.83202745664641e-001°)
1.20226443461741e+003	(-7.77164703418983e-002dB,7.65376667430319e-001°)
1.23026877081238e+003	(-7.76850117929038e-002dB,7.47956240626915e-001°)
1.25892541179416e+003	(-7.76549689133333e-002dB,7.30932239484940e-001°)
1.28824955169313e+003	(-7.76262780050232e-002dB,7.14295647706557e-001°)
1.31825673855640e+003	(-7.75988782351797e-002dB,6.98037653732891e-001°)
1.34896288259165e+003	(-7.75727115075242e-002dB,6.82149646115799e-001°)
1.38038426460288e+003	(-7.75477223392636e-002dB,6.66623208995662e-001°)
1.41253754462275e+003	(-7.75238577435869e-002dB,6.51450117675968e-001°)
1.44543977074592e+003	(-7.75010671173961e-002dB,6.36622334300557e-001°)
1.47910838816820e+003	(-7.74793021341740e-002dB,6.22132003624553e-001°)
1.51356124843620e+003	(-7.74585166415290e-002dB,6.07971448882359e-001°)
1.54881661891248e+003	(-7.74386665634945e-002dB,5.94133167745914e-001°)
1.58489319246111e+003	(-7.74197098071000e-002dB,5.80609828374969e-001°)
1.62181009735892e+003	(-7.74016061732104e-002dB,5.67394265554627e-001°)
1.65958690743755e+003	(-7.73843172713114e-002dB,5.54479476921913e-001°)
1.69824365246174e+003	(-7.73678064382313e-002dB,5.41858619273657e-001°)
1.73780082874937e+003	(-7.73520386603627e-002dB,5.29525004960060e-001°)
1.77827941003892e+003	(-7.73369804995316e-002dB,5.17472098358262e-001°)
1.81970085860998e+003	(-7.73226000220897e-002dB,5.05693512425595e-001°)
1.86208713666286e+003	(-7.73088667312681e-002dB,4.94183005329299e-001°)
1.90546071796324e+003	(-7.72957515025192e-002dB,4.82934477153161e-001°)
1.94984459975804e+003	(-7.72832265218027e-002dB,4.71941966678597e-001°)
1.99526231496887e+003	(-7.72712652266009e-002dB,4.61199648237835e-001°)
2.04173794466952e+003	(-7.72598422496749e-002dB,4.50701828637036e-001°)
2.08929613085403e+003	(-7.72489333652188e-002dB,4.40442944150446e-001°)
2.13796208950222e+003	(-7.72385154375804e-002dB,4.30417557581291e-001°)
2.18776162394954e+003	(-7.72285663721389e-002dB,4.20620355390623e-001°)
2.23872113856833e+003	(-7.72190650685592e-002dB,4.11046144887860e-001°)
2.29086765276776e+003	(-7.72099913759710e-002dB,4.01689851487905e-001°)
2.34422881531991e+003	(-7.72013260503128e-002dB,3.92546516028911e-001°)
2.39883291901948e+003	(-7.71930507134846e-002dB,3.83611292151467e-001°)
2.45470891568502e+003	(-7.71851478144313e-002dB,3.74879443734568e-001°)
2.51188643150957e+003	(-7.71776005919012e-002dB,3.66346342393302e-001°)
2.57039578276885e+003	(-7.71703930389147e-002dB,3.58007465029865e-001°)
2.63026799189537e+003	(-7.71635098688264e-002dB,3.49858391443292e-001°)
2.69153480392690e+003	(-7.71569364829200e-002dB,3.41894801988963e-001°)
2.75422870333815e+003	(-7.71506589394476e-002dB,3.34112475296066e-001°)
2.81838293126444e+003	(-7.71446639240774e-002dB,3.26507286030970e-001°)
2.88403150312659e+003	(-7.71389387216242e-002dB,3.19075202719701e-001°)
2.95120922666637e+003	(-7.71334711891585e-002dB,3.11812285608193e-001°)
3.01995172040200e+003	(-7.71282497301910e-002dB,3.04714684582956e-001°)
3.09029543251358e+003	(-7.71232632701245e-002dB,2.97778637130480e-001°)
3.16227766016836e+003	(-7.71185012327394e-002dB,2.91000466346478e-001°)
3.23593656929627e+003	(-7.71139535177916e-002dB,2.84376578989783e-001°)
3.31131121482590e+003	(-7.71096104795879e-002dB,2.77903463579204e-001°)
3.38844156139201e+003	(-7.71054629065141e-002dB,2.71577688536787e-001°)
3.46736850452530e+003	(-7.71015020015398e-002dB,2.65395900367481e-001°)
3.54813389233574e+003	(-7.70977193634950e-002dB,2.59354821887587e-001°)
3.63078054770100e+003	(-7.70941069693433e-002dB,2.53451250486250e-001°)
3.71535229097171e+003	(-7.70906571570912e-002dB,2.47682056430846e-001°)
3.80189396320559e+003	(-7.70873626095807e-002dB,2.42044181209597e-001°)
3.89045144994279e+003	(-7.70842163389596e-002dB,2.36534635911956e-001°)
3.98107170553495e+003	(-7.70812116718538e-002dB,2.31150499644585e-001°)
4.07380277804111e+003	(-7.70783422352348e-002dB,2.25888917984388e-001°)
4.16869383470333e+003	(-7.70756019428839e-002dB,2.20747101469645e-001°)
4.26579518801591e+003	(-7.70729849825019e-002dB,2.15722324116721e-001°)
4.36515832240164e+003	(-7.70704858033644e-002dB,2.10811921980947e-001°)
4.46683592150961e+003	(-7.70680991045619e-002dB,2.06013291744118e-001°)
4.57088189614873e+003	(-7.70658198237566e-002dB,2.01323889332751e-001°)
4.67735141287196e+003	(-7.70636431264489e-002dB,1.96741228575165e-001°)
4.78630092322636e+003	(-7.70615643957088e-002dB,1.92262879879233e-001°)
4.89778819368444e+003	(-7.70595792223910e-002dB,1.87886468947767e-001°)
5.01187233627270e+003	(-7.70576833958038e-002dB,1.83609675522246e-001°)
5.12861383991362e+003	(-7.70558728947473e-002dB,1.79430232147071e-001°)
5.24807460249770e+003	(-7.70541438790003e-002dB,1.75345922976904e-001°)
5.37031796370250e+003	(-7.70524926811864e-002dB,1.71354582594910e-001°)
5.49540873857622e+003	(-7.70509157989626e-002dB,1.67454094869364e-001°)
5.62341325190346e+003	(-7.70494098876405e-002dB,1.63642391830346e-001°)
5.75439937337154e+003	(-7.70479717530309e-002dB,1.59917452576478e-001°)
5.88843655355586e+003	(-7.70465983447320e-002dB,1.56277302200130e-001°)
6.02559586074354e+003	(-7.70452867496053e-002dB,1.52720010743174e-001°)
6.16595001861479e+003	(-7.70440341856373e-002dB,1.49243692176106e-001°)
6.30957344480190e+003	(-7.70428379960234e-002dB,1.45846503392904e-001°)
6.45654229034652e+003	(-7.70416956435226e-002dB,1.42526643238986e-001°)
6.60693448007592e+003	(-7.70406047050898e-002dB,1.39282351555993e-001°)
6.76082975391978e+003	(-7.70395628667432e-002dB,1.36111908245351e-001°)
6.91830970918932e+003	(-7.70385679186140e-002dB,1.33013632363975e-001°)
7.07945784384134e+003	(-7.70376177503433e-002dB,1.29985881222134e-001°)
7.24435960074986e+003	(-7.70367103464997e-002dB,1.27027049525272e-001°)
7.41310241300913e+003	(-7.70358437823944e-002dB,1.24135568513885e-001°)
7.58577575029179e+003	(-7.70350162199519e-002dB,1.21309905134023e-001°)
7.76247116628687e+003	(-7.70342259038098e-002dB,1.18548561229971e-001°)
7.94328234724277e+003	(-7.70334711576329e-002dB,1.15850072741615e-001°)
8.12830516164094e+003	(-7.70327503805146e-002dB,1.13213008936535e-001°)
8.31763771102666e+003	(-7.70320620436072e-002dB,1.10635971643915e-001°)
8.51138038202371e+003	(-7.70314046868660e-002dB,1.08117594520923e-001°)
8.70963589956075e+003	(-7.70307769159645e-002dB,1.05656542322395e-001°)
8.91250938133740e+003	(-7.70301773993320e-002dB,1.03251510196681e-001°)
9.12010839355904e+003	(-7.70296048653226e-002dB,1.00901222992465e-001°)
9.33254300796985e+003	(-7.70290580995170e-002dB,9.86044345816057e-002°)
9.54992586021430e+003	(-7.70285359421664e-002dB,9.63599272015836e-002°)
9.77237220955804e+003	(-7.70280372857178e-002dB,9.41665108100533e-002°)
9.99999999999993e+003	(-7.70275610724552e-002dB,9.20230224457105e-002°)
1.02329299228075e+004	(-7.70271062922719e-002dB,8.99283256278838e-002°)
1.04712854805089e+004	(-7.70266719805287e-002dB,8.78813097365600e-002°)
1.07151930523760e+004	(-7.70262572159957e-002dB,8.58808894327194e-002°)
1.09647819614318e+004	(-7.70258611189125e-002dB,8.39260040860462e-002°)
1.12201845430196e+004	(-7.70254828490968e-002dB,8.20156172052893e-002°)
1.14815362149688e+004	(-7.70251216041999e-002dB,8.01487158916089e-002°)
1.17489755493952e+004	(-7.70247766179766e-002dB,7.83243103033604e-002°)
1.20226443461740e+004	(-7.70244471586660e-002dB,7.65414331256606e-002°)
1.23026877081237e+004	(-7.70241325274444e-002dB,7.47991390704490e-002°)
1.25892541179416e+004	(-7.70238320569426e-002dB,7.30965043555600e-002°)
1.28824955169313e+004	(-7.70235451098230e-002dB,7.14326262352499e-002°)
1.31825673855640e+004	(-7.70232710774360e-002dB,6.98066225077954e-002°)
1.34896288259164e+004	(-7.70230093785183e-002dB,6.82176310543049e-002°)
1.38038426460288e+004	(-7.70227594579836e-002dB,6.66648093761681e-002°)
1.41253754462274e+004	(-7.70225207857120e-002dB,6.51473341556930e-002°)
1.44543977074592e+004	(-7.70222928554503e-002dB,6.36644008153743e-002°)
1.47910838816820e+004	(-7.70220751837289e-002dB,6.22152230892454e-002°)
1.51356124843620e+004	(-7.70218673088351e-002dB,6.07990326114280e-002°)
1.54881661891247e+004	(-7.70216687898500e-002dB,5.94150785036399e-002°)
1.58489319246110e+004	(-7.70214792056839e-002dB,5.80626269849581e-002°)
1.62181009735892e+004	(-7.70212981542008e-002dB,5.67409609660975e-002°)
1.65958690743755e+004	(-7.70211252513685e-002dB,5.54493796910200e-002°)
1.69824365246173e+004	(-7.70209601304428e-002dB,5.41871983489534e-002°)
1.73780082874936e+004	(-7.70208024411779e-002dB,5.29537477183887e-002°)
1.77827941003891e+004	(-7.70206518490879e-002dB,5.17483738147829e-002°)
1.81970085860997e+004	(-7.70205080347639e-002dB,5.05704375308426e-002°)
1.86208713666285e+004	(-7.70203706931426e-002dB,4.94193143180345e-002°)
1.90546071796323e+004	(-7.70202395329054e-002dB,4.82943938375567e-002°)
1.94984459975803e+004	(-7.70201142758505e-002dB,4.71950796409849e-002°)
1.99526231496887e+004	(-7.70199946562876e-002dB,4.61207888635924e-002°)
2.04173794466951e+004	(-7.70198804204868e-002dB,4.50709519043991e-002°)
2.08929613085402e+004	(-7.70197713261440e-002dB,4.40450121247003e-002°)
2.13796208950222e+004	(-7.70196671418528e-002dB,4.30424255659348e-002°)
2.18776162394954e+004	(-7.70195676466267e-002dB,4.20626606408439e-002°)
2.23872113856832e+004	(-7.70194726294158e-002dB,4.11051978703404e-002°)
2.29086765276776e+004	(-7.70193818886928e-002dB,4.01695295905672e-002°)
2.34422881531990e+004	(-7.70192952319603e-002dB,3.92551597063546e-002°)
2.39883291901947e+004	(-7.70192124754324e-002dB,3.83616034038139e-002°)
2.45470891568501e+004	(-7.70191334435539e-002dB,3.74883869155851e-002°)
2.51188643150956e+004	(-7.70190579686991e-002dB,3.66350472441092e-002°)
2.57039578276884e+004	(-7.70189858907676e-002dB,3.58011319401588e-002°)
2.63026799189536e+004	(-7.70189170568793e-002dB,3.49861988562503e-002°)
2.69153480392689e+004	(-7.70188513210246e-002dB,3.41898159015643e-002°)
2.75422870333814e+004	(-7.70187885437650e-002dB,3.34115608274708e-002°)
2.81838293126443e+004	(-7.70187285919530e-002dB,3.26510209871903e-002°)
2.88403150312658e+004	(-7.70186713384138e-002dB,3.19077931424874e-002°)
2.95120922666636e+004	(-7.70186166617041e-002dB,3.11814832182307e-002°)
3.01995172040199e+004	(-7.70185644458570e-002dB,3.04717061187229e-002°)
3.09029543251357e+004	(-7.70185145801080e-002dB,2.97780855122177e-002°)
3.16227766016835e+004	(-7.70184669586883e-002dB,2.91002536274932e-002°)
3.23593656929626e+004	(-7.70184214805839e-002dB,2.84378510788288e-002°)
3.31131121482588e+004	(-7.70183780493311e-002dB,2.77905266397996e-002°)
3.38844156139200e+004	(-7.70183365728035e-002dB,2.71579371022779e-002°)
3.46736850452529e+004	(-7.70182969630279e-002dB,2.65397470548940e-002°)
3.54813389233573e+004	(-7.70182591359892e-002dB,2.59356287297130e-002°)
3.63078054770098e+004	(-7.70182230114422e-002dB,2.53452618090313e-002°)
3.71535229097169e+004	(-7.70181885127716e-002dB,2.47683332760464e-002°)
3.80189396320558e+004	(-7.70181555667957e-002dB,2.42045372331657e-002°)
3.89045144994277e+004	(-7.70181241036328e-002dB,2.36535747559250e-002°)
3.98107170553494e+004	(-7.70180940565388e-002dB,2.31151537111858e-002°)
4.07380277804109e+004	(-7.70180653617966e-002dB,2.25889886165212e-002°)
4.16869383470332e+004	(-7.70180379585267e-002dB,2.20748005005047e-002°)
4.26579518801589e+004	(-7.70180117886053e-002dB,2.15723167384573e-002°)
4.36515832240162e+004	(-7.70179867965255e-002dB,2.10812708922681e-002°)
4.46683592150959e+004	(-7.70179629292760e-002dB,2.06014026168292e-002°)
4.57088189614871e+004	(-7.70179401362244e-002dB,2.01324574784299e-002°)
4.67735141287194e+004	(-7.70179183690351e-002dB,1.96741868252705e-002°)
4.78630092322634e+004	(-7.70178975815277e-002dB,1.92263476849188e-002°)
4.89778819368442e+004	(-7.70178777296116e-002dB,1.87887026098055e-002°)
5.01187233627268e+004	(-7.70178587711780e-002dB,1.83610195480939e-002°)
5.12861383991360e+004	(-7.70178406660162e-002dB,1.79430717379108e-002°)
5.24807460249768e+004	(-7.70178233757214e-002dB,1.75346375812315e-002°)
5.37031796370248e+004	(-7.70178068636166e-002dB,1.71355005235371e-002°)
5.49540873857620e+004	(-7.70177910946768e-002dB,1.67454489309472e-002°)
5.62341325190344e+004	(-7.70177760354618e-002dB,1.63642759938446e-002°)
5.75439937337152e+004	(-7.70177616540230e-002dB,1.59917796088904e-002°)
