Freq.	V(vo)
1.00000000000000e+001	(-1.25281193577621e+001dB,7.38692879124743e+001°)
1.00230523807790e+001	(-1.25103821340944e+001dB,7.38298839604568e+001°)
1.00461579027840e+001	(-1.24926526783262e+001dB,7.37904342520796e+001°)
1.00693166885180e+001	(-1.24749310084800e+001dB,7.37509387502324e+001°)
1.00925288607668e+001	(-1.24572171425895e+001dB,7.37113974180129e+001°)
1.01157945425990e+001	(-1.24395110986998e+001dB,7.36718102187250e+001°)
1.01391138573668e+001	(-1.24218128948672e+001dB,7.36321771158802e+001°)
1.01624869287070e+001	(-1.24041225491592e+001dB,7.35924980731957e+001°)
1.01859138805412e+001	(-1.23864400796545e+001dB,7.35527730545930e+001°)
1.02093948370768e+001	(-1.23687655044428e+001dB,7.35130020241987e+001°)
1.02329299228075e+001	(-1.23510988416253e+001dB,7.34731849463429e+001°)
1.02565192625141e+001	(-1.23334401093139e+001dB,7.34333217855582e+001°)
1.02801629812647e+001	(-1.23157893256318e+001dB,7.33934125065802e+001°)
1.03038612044162e+001	(-1.22981465087132e+001dB,7.33534570743452e+001°)
1.03276140576140e+001	(-1.22805116767035e+001dB,7.33134554539902e+001°)
1.03514216667934e+001	(-1.22628848477588e+001dB,7.32734076108527e+001°)
1.03752841581801e+001	(-1.22452660400466e+001dB,7.32333135104690e+001°)
1.03992016582906e+001	(-1.22276552717451e+001dB,7.31931731185741e+001°)
1.04231742939330e+001	(-1.22100525610438e+001dB,7.31529864011007e+001°)
1.04472021922080e+001	(-1.21924579261429e+001dB,7.31127533241783e+001°)
1.04712854805090e+001	(-1.21748713852538e+001dB,7.30724738541328e+001°)
1.04954242865232e+001	(-1.21572929565988e+001dB,7.30321479574856e+001°)
1.05196187382322e+001	(-1.21397226584112e+001dB,7.29917756009528e+001°)
1.05438689639126e+001	(-1.21221605089353e+001dB,7.29513567514443e+001°)
1.05681750921366e+001	(-1.21046065264264e+001dB,7.29108913760638e+001°)
1.05925372517729e+001	(-1.20870607291509e+001dB,7.28703794421066e+001°)
1.06169555719872e+001	(-1.20695231353861e+001dB,7.28298209170603e+001°)
1.06414301822431e+001	(-1.20519937634203e+001dB,7.27892157686035e+001°)
1.06659612123026e+001	(-1.20344726315530e+001dB,7.27485639646046e+001°)
1.06905487922266e+001	(-1.20169597580947e+001dB,7.27078654731219e+001°)
1.07151930523761e+001	(-1.19994551613670e+001dB,7.26671202624018e+001°)
1.07398941234124e+001	(-1.19819588597024e+001dB,7.26263283008793e+001°)
1.07646521362983e+001	(-1.19644708714449e+001dB,7.25854895571760e+001°)
1.07894672222983e+001	(-1.19469912149493e+001dB,7.25446040001004e+001°)
1.08143395129794e+001	(-1.19295199085820e+001dB,7.25036715986460e+001°)
1.08392691402120e+001	(-1.19120569707201e+001dB,7.24626923219919e+001°)
1.08642562361706e+001	(-1.18946024197523e+001dB,7.24216661395013e+001°)
1.08893009333343e+001	(-1.18771562740786e+001dB,7.23805930207201e+001°)
1.09144033644875e+001	(-1.18597185521103e+001dB,7.23394729353775e+001°)
1.09395636627209e+001	(-1.18422892722698e+001dB,7.22983058533845e+001°)
1.09647819614318e+001	(-1.18248684529913e+001dB,7.22570917448331e+001°)
1.09900583943252e+001	(-1.18074561127203e+001dB,7.22158305799959e+001°)
1.10153930954141e+001	(-1.17900522699137e+001dB,7.21745223293249e+001°)
1.10407861990207e+001	(-1.17726569430402e+001dB,7.21331669634511e+001°)
1.10662378397766e+001	(-1.17552701505800e+001dB,7.20917644531842e+001°)
1.10917481526240e+001	(-1.17378919110248e+001dB,7.20503147695110e+001°)
1.11173172728159e+001	(-1.17205222428784e+001dB,7.20088178835948e+001°)
1.11429453359173e+001	(-1.17031611646561e+001dB,7.19672737667751e+001°)
1.11686324778056e+001	(-1.16858086948852e+001dB,7.19256823905669e+001°)
1.11943788346715e+001	(-1.16684648521049e+001dB,7.18840437266597e+001°)
1.12201845430196e+001	(-1.16511296548664e+001dB,7.18423577469168e+001°)
1.12460497396692e+001	(-1.16338031217329e+001dB,7.18006244233748e+001°)
1.12719745617551e+001	(-1.16164852712799e+001dB,7.17588437282423e+001°)
1.12979591467279e+001	(-1.15991761220950e+001dB,7.17170156339004e+001°)
1.13240036323555e+001	(-1.15818756927782e+001dB,7.16751401129007e+001°)
1.13501081567231e+001	(-1.15645840019417e+001dB,7.16332171379657e+001°)
1.13762728582343e+001	(-1.15473010682105e+001dB,7.15912466819869e+001°)
1.14024978756117e+001	(-1.15300269102218e+001dB,7.15492287180256e+001°)
1.14287833478977e+001	(-1.15127615466257e+001dB,7.15071632193109e+001°)
1.14551294144553e+001	(-1.14955049960850e+001dB,7.14650501592401e+001°)
1.14815362149688e+001	(-1.14782572772753e+001dB,7.14228895113770e+001°)
1.15080038894443e+001	(-1.14610184088850e+001dB,7.13806812494524e+001°)
1.15345325782109e+001	(-1.14437884096158e+001dB,7.13384253473620e+001°)
1.15611224219210e+001	(-1.14265672981825e+001dB,7.12961217791678e+001°)
1.15877735615512e+001	(-1.14093550933130e+001dB,7.12537705190955e+001°)
1.16144861384034e+001	(-1.13921518137487e+001dB,7.12113715415348e+001°)
1.16412602941049e+001	(-1.13749574782443e+001dB,7.11689248210389e+001°)
1.16680961706096e+001	(-1.13577721055683e+001dB,7.11264303323234e+001°)
1.16949939101987e+001	(-1.13405957145028e+001dB,7.10838880502662e+001°)
1.17219536554813e+001	(-1.13234283238437e+001dB,7.10412979499068e+001°)
1.17489755493953e+001	(-1.13062699524010e+001dB,7.09986600064451e+001°)
1.17760597352080e+001	(-1.12891206189984e+001dB,7.09559741952422e+001°)
1.18032063565173e+001	(-1.12719803424743e+001dB,7.09132404918186e+001°)
1.18304155572516e+001	(-1.12548491416810e+001dB,7.08704588718534e+001°)
1.18576874816716e+001	(-1.12377270354855e+001dB,7.08276293111856e+001°)
1.18850222743701e+001	(-1.12206140427693e+001dB,7.07847517858119e+001°)
1.19124200802737e+001	(-1.12035101824286e+001dB,7.07418262718866e+001°)
1.19398810446427e+001	(-1.11864154733747e+001dB,7.06988527457212e+001°)
1.19674053130724e+001	(-1.11693299345336e+001dB,7.06558311837843e+001°)
1.19949930314937e+001	(-1.11522535848466e+001dB,7.06127615626998e+001°)
1.20226443461741e+001	(-1.11351864432704e+001dB,7.05696438592488e+001°)
1.20503594037179e+001	(-1.11181285287770e+001dB,7.05264780503664e+001°)
1.20781383510678e+001	(-1.11010798603542e+001dB,7.04832641131436e+001°)
1.21059813355048e+001	(-1.10840404570053e+001dB,7.04400020248249e+001°)
1.21338885046497e+001	(-1.10670103377498e+001dB,7.03966917628094e+001°)
1.21618600064636e+001	(-1.10499895216231e+001dB,7.03533333046495e+001°)
1.21898959892486e+001	(-1.10329780276769e+001dB,7.03099266280516e+001°)
1.22179966016487e+001	(-1.10159758749794e+001dB,7.02664717108739e+001°)
1.22461619926504e+001	(-1.09989830826154e+001dB,7.02229685311278e+001°)
1.22743923115840e+001	(-1.09819996696862e+001dB,7.01794170669764e+001°)
1.23026877081238e+001	(-1.09650256553102e+001dB,7.01358172967352e+001°)
1.23310483322890e+001	(-1.09480610586231e+001dB,7.00921691988706e+001°)
1.23594743344450e+001	(-1.09311058987775e+001dB,7.00484727520006e+001°)
1.23879658653036e+001	(-1.09141601949437e+001dB,7.00047279348939e+001°)
1.24165230759240e+001	(-1.08972239663097e+001dB,6.99609347264700e+001°)
1.24451461177138e+001	(-1.08802972320810e+001dB,6.99170931057987e+001°)
1.24738351424294e+001	(-1.08633800114815e+001dB,6.98732030520996e+001°)
1.25025903021771e+001	(-1.08464723237532e+001dB,6.98292645447431e+001°)
1.25314117494141e+001	(-1.08295741881562e+001dB,6.97852775632484e+001°)
1.25602996369487e+001	(-1.08126856239696e+001dB,6.97412420872846e+001°)
1.25892541179416e+001	(-1.07958066504911e+001dB,6.96971580966703e+001°)
1.26182753459066e+001	(-1.07789372870374e+001dB,6.96530255713731e+001°)
1.26473634747114e+001	(-1.07620775529443e+001dB,6.96088444915096e+001°)
1.26765186585784e+001	(-1.07452274675672e+001dB,6.95646148373457e+001°)
1.27057410520853e+001	(-1.07283870502810e+001dB,6.95203365892955e+001°)
1.27350308101665e+001	(-1.07115563204804e+001dB,6.94760097279225e+001°)
1.27643880881134e+001	(-1.06947352975800e+001dB,6.94316342339388e+001°)
1.27938130415752e+001	(-1.06779240010148e+001dB,6.93872100882045e+001°)
1.28233058265601e+001	(-1.06611224502402e+001dB,6.93427372717291e+001°)
1.28528665994361e+001	(-1.06443306647321e+001dB,6.92982157656706e+001°)
1.28824955169313e+001	(-1.06275486639876e+001dB,6.92536455513351e+001°)
1.29121927361353e+001	(-1.06107764675246e+001dB,6.92090266101783e+001°)
1.29419584144998e+001	(-1.05940140948824e+001dB,6.91643589238032e+001°)
1.29717927098395e+001	(-1.05772615656220e+001dB,6.91196424739634e+001°)
1.30016957803328e+001	(-1.05605188993259e+001dB,6.90748772425598e+001°)
1.30316677845229e+001	(-1.05437861155987e+001dB,6.90300632116431e+001°)
1.30617088813183e+001	(-1.05270632340674e+001dB,6.89852003634134e+001°)
1.30918192299940e+001	(-1.05103502743813e+001dB,6.89402886802192e+001°)
1.31219989901920e+001	(-1.04936472562123e+001dB,6.88953281445598e+001°)
1.31522483219223e+001	(-1.04769541992555e+001dB,6.88503187390827e+001°)
1.31825673855640e+001	(-1.04602711232289e+001dB,6.88052604465862e+001°)
1.32129563418657e+001	(-1.04435980478740e+001dB,6.87601532500193e+001°)
1.32434153519466e+001	(-1.04269349929560e+001dB,6.87149971324802e+001°)
1.32739445772973e+001	(-1.04102819782639e+001dB,6.86697920772187e+001°)
1.33045441797808e+001	(-1.03936390236111e+001dB,6.86245380676354e+001°)
1.33352143216332e+001	(-1.03770061488348e+001dB,6.85792350872824e+001°)
1.33659551654643e+001	(-1.03603833737975e+001dB,6.85338831198636e+001°)
1.33967668742593e+001	(-1.03437707183862e+001dB,6.84884821492349e+001°)
1.34276496113785e+001	(-1.03271682025129e+001dB,6.84430321594054e+001°)
1.34586035405594e+001	(-1.03105758461154e+001dB,6.83975331345360e+001°)
1.34896288259164e+001	(-1.02939936691567e+001dB,6.83519850589423e+001°)
1.35207256319427e+001	(-1.02774216916260e+001dB,6.83063879170934e+001°)
1.35518941235103e+001	(-1.02608599335386e+001dB,6.82607416936130e+001°)
1.35831344658714e+001	(-1.02443084149359e+001dB,6.82150463732795e+001°)
1.36144468246594e+001	(-1.02277671558864e+001dB,6.81693019410278e+001°)
1.36458313658891e+001	(-1.02112361764852e+001dB,6.81235083819477e+001°)
1.36772882559584e+001	(-1.01947154968547e+001dB,6.80776656812871e+001°)
1.37088176616484e+001	(-1.01782051371447e+001dB,6.80317738244505e+001°)
1.37404197501251e+001	(-1.01617051175327e+001dB,6.79858327970010e+001°)
1.37720946889394e+001	(-1.01452154582242e+001dB,6.79398425846603e+001°)
1.38038426460287e+001	(-1.01287361794530e+001dB,6.78938031733099e+001°)
1.38356637897177e+001	(-1.01122673014813e+001dB,6.78477145489915e+001°)
1.38675582887188e+001	(-1.00958088446001e+001dB,6.78015766979077e+001°)
1.38995263121334e+001	(-1.00793608291295e+001dB,6.77553896064234e+001°)
1.39315680294529e+001	(-1.00629232754187e+001dB,6.77091532610662e+001°)
1.39636836105593e+001	(-1.00464962038468e+001dB,6.76628676485268e+001°)
1.39958732257261e+001	(-1.00300796348225e+001dB,6.76165327556610e+001°)
1.40281370456195e+001	(-1.00136735887846e+001dB,6.75701485694901e+001°)
1.40604752412990e+001	(-9.99727808620251e+000dB,6.75237150772011e+001°)
1.40928879842186e+001	(-9.98089314757618e+000dB,6.74772322661490e+001°)
1.41253754462274e+001	(-9.96451879343645e+000dB,6.74307001238571e+001°)
1.41579377995707e+001	(-9.94815504434544e+000dB,6.73841186380174e+001°)
1.41905752168908e+001	(-9.93180192089679e+000dB,6.73374877964934e+001°)
1.42232878712281e+001	(-9.91545944371580e+000dB,6.72908075873194e+001°)
1.42560759360218e+001	(-9.89912763345991e+000dB,6.72440779987030e+001°)
1.42889395851109e+001	(-9.88280651081882e+000dB,6.71972990190251e+001°)
1.43218789927353e+001	(-9.86649609651482e+000dB,6.71504706368421e+001°)
1.43548943335364e+001	(-9.85019641130307e+000dB,6.71035928408861e+001°)
1.43879857825583e+001	(-9.83390747597195e+000dB,6.70566656200675e+001°)
1.44211535152486e+001	(-9.81762931134311e+000dB,6.70096889634746e+001°)
1.44543977074592e+001	(-9.80136193827204e+000dB,6.69626628603765e+001°)
1.44877185354475e+001	(-9.78510537764810e+000dB,6.69155873002230e+001°)
1.45211161758773e+001	(-9.76885965039498e+000dB,6.68684622726478e+001°)
1.45545908058195e+001	(-9.75262477747084e+000dB,6.68212877674674e+001°)
1.45881426027534e+001	(-9.73640077986867e+000dB,6.67740637746852e+001°)
1.46217717445671e+001	(-9.72018767861658e+000dB,6.67267902844910e+001°)
1.46554784095590e+001	(-9.70398549477788e+000dB,6.66794672872633e+001°)
1.46892627764385e+001	(-9.68779424945178e+000dB,6.66320947735706e+001°)
1.47231250243271e+001	(-9.67161396377312e+000dB,6.65846727341733e+001°)
1.47570653327588e+001	(-9.65544465891308e+000dB,6.65372011600250e+001°)
1.47910838816819e+001	(-9.63928635607929e+000dB,6.64896800422743e+001°)
1.48251808514594e+001	(-9.62313907651605e+000dB,6.64421093722660e+001°)
1.48593564228699e+001	(-9.60700284150473e+000dB,6.63944891415434e+001°)
1.48936107771090e+001	(-9.59087767236389e+000dB,6.63468193418496e+001°)
1.49279440957898e+001	(-9.57476359044974e+000dB,6.62990999651294e+001°)
1.49623565609442e+001	(-9.55866061715628e+000dB,6.62513310035312e+001°)
1.49968483550236e+001	(-9.54256877391554e+000dB,6.62035124494087e+001°)
1.50314196609001e+001	(-9.52648808219799e+000dB,6.61556442953228e+001°)
1.50660706618673e+001	(-9.51041856351271e+000dB,6.61077265340429e+001°)
1.51008015416413e+001	(-9.49436023940767e+000dB,6.60597591585499e+001°)
1.51356124843619e+001	(-9.47831313146993e+000dB,6.60117421620376e+001°)
1.51705036745932e+001	(-9.46227726132615e+000dB,6.59636755379142e+001°)
1.52054752973248e+001	(-9.44625265064252e+000dB,6.59155592798053e+001°)
1.52405275379728e+001	(-9.43023932112526e+000dB,6.58673933815547e+001°)
1.52756605823806e+001	(-9.41423729452083e+000dB,6.58191778372283e+001°)
1.53108746168202e+001	(-9.39824659261612e+000dB,6.57709126411139e+001°)
1.53461698279928e+001	(-9.38226723723880e+000dB,6.57225977877254e+001°)
1.53815464030302e+001	(-9.36629925025746e+000dB,6.56742332718039e+001°)
1.54170045294954e+001	(-9.35034265358209e+000dB,6.56258190883200e+001°)
1.54525443953840e+001	(-9.33439746916401e+000dB,6.55773552324760e+001°)
1.54881661891247e+001	(-9.31846371899642e+000dB,6.55288416997095e+001°)
1.55238700995807e+001	(-9.30254142511451e+000dB,6.54802784856929e+001°)
1.55596563160506e+001	(-9.28663060959567e+000dB,6.54316655863390e+001°)
1.55955250282694e+001	(-9.27073129455990e+000dB,6.53830029978003e+001°)
1.56314764264094e+001	(-9.25484350216980e+000dB,6.53342907164741e+001°)
1.56675107010813e+001	(-9.23896725463112e+000dB,6.52855287390032e+001°)
1.57036280433354e+001	(-9.22310257419272e+000dB,6.52367170622789e+001°)
1.57398286446620e+001	(-9.20724948314706e+000dB,6.51878556834442e+001°)
1.57761126969933e+001	(-9.19140800383021e+000dB,6.51389445998944e+001°)
1.58124803927037e+001	(-9.17557815862220e+000dB,6.50899838092826e+001°)
1.58489319246110e+001	(-9.15975996994728e+000dB,6.50409733095190e+001°)
1.58854674859776e+001	(-9.14395346027408e+000dB,6.49919130987763e+001°)
1.59220872705115e+001	(-9.12815865211586e+000dB,6.49428031754911e+001°)
1.59587914723672e+001	(-9.11237556803076e+000dB,6.48936435383666e+001°)
1.59955802861465e+001	(-9.09660423062197e+000dB,6.48444341863757e+001°)
1.60324539069002e+001	(-9.08084466253801e+000dB,6.47951751187634e+001°)
1.60694125301286e+001	(-9.06509688647293e+000dB,6.47458663350500e+001°)
1.61064563517825e+001	(-9.04936092516641e+000dB,6.46965078350335e+001°)
1.61435855682647e+001	(-9.03363680140424e+000dB,6.46470996187934e+001°)
1.61808003764305e+001	(-9.01792453801823e+000dB,6.45976416866919e+001°)
1.62181009735891e+001	(-9.00222415788659e+000dB,6.45481340393791e+001°)
1.62554875575047e+001	(-8.98653568393408e+000dB,6.44985766777934e+001°)
1.62929603263970e+001	(-8.97085913913223e+000dB,6.44489696031670e+001°)
1.63305194789432e+001	(-8.95519454649951e+000dB,6.43993128170270e+001°)
1.63681652142779e+001	(-8.93954192910156e+000dB,6.43496063211997e+001°)
1.64058977319952e+001	(-8.92390131005123e+000dB,6.42998501178132e+001°)
1.64437172321491e+001	(-8.90827271250913e+000dB,6.42500442093000e+001°)
1.64816239152549e+001	(-8.89265615968333e+000dB,6.42001885984020e+001°)
1.65196179822900e+001	(-8.87705167482991e+000dB,6.41502832881709e+001°)
1.65576996346951e+001	(-8.86145928125297e+000dB,6.41003282819738e+001°)
1.65958690743754e+001	(-8.84587900230489e+000dB,6.40503235834959e+001°)
1.66341265037015e+001	(-8.83031086138627e+000dB,6.40002691967427e+001°)
1.66724721255104e+001	(-8.81475488194652e+000dB,6.39501651260444e+001°)
1.67109061431069e+001	(-8.79921108748356e+000dB,6.39000113760594e+001°)
1.67494287602642e+001	(-8.78367950154429e+000dB,6.38498079517767e+001°)
1.67880401812254e+001	(-8.76816014772460e+000dB,6.37995548585201e+001°)
1.68267406107045e+001	(-8.75265304966954e+000dB,6.37492521019512e+001°)
1.68655302538872e+001	(-8.73715823107352e+000dB,6.36988996880735e+001°)
1.69044093164324e+001	(-8.72167571568033e+000dB,6.36484976232350e+001°)
1.69433780044731e+001	(-8.70620552728345e+000dB,6.35980459141324e+001°)
1.69824365246172e+001	(-8.69074768972601e+000dB,6.35475445678143e+001°)
1.70215850839493e+001	(-8.67530222690104e+000dB,6.34969935916849e+001°)
1.70608238900310e+001	(-8.65986916275140e+000dB,6.34463929935085e+001°)
1.71001531509027e+001	(-8.64444852127026e+000dB,6.33957427814110e+001°)
1.71395730750841e+001	(-8.62904032650084e+000dB,6.33450429638854e+001°)
1.71790838715757e+001	(-8.61364460253669e+000dB,6.32942935497957e+001°)
1.72186857498599e+001	(-8.59826137352178e+000dB,6.32434945483787e+001°)
1.72583789199018e+001	(-8.58289066365059e+000dB,6.31926459692495e+001°)
1.72981635921508e+001	(-8.56753249716821e+000dB,6.31417478224053e+001°)
1.73380399775412e+001	(-8.55218689837045e+000dB,6.30908001182281e+001°)
1.73780082874935e+001	(-8.53685389160384e+000dB,6.30398028674889e+001°)
1.74180687339159e+001	(-8.52153350126575e+000dB,6.29887560813524e+001°)
1.74582215292048e+001	(-8.50622575180461e+000dB,6.29376597713796e+001°)
1.74984668862464e+001	(-8.49093066771964e+000dB,6.28865139495334e+001°)
1.75388050184174e+001	(-8.47564827356136e+000dB,6.28353186281805e+001°)
1.75792361395867e+001	(-8.46037859393112e+000dB,6.27840738200968e+001°)
1.76197604641161e+001	(-8.44512165348176e+000dB,6.27327795384714e+001°)
1.76603782068614e+001	(-8.42987747691711e+000dB,6.26814357969098e+001°)
1.77010895831740e+001	(-8.41464608899231e+000dB,6.26300426094383e+001°)
1.77418948089014e+001	(-8.39942751451387e+000dB,6.25785999905087e+001°)
1.77827941003890e+001	(-8.38422177833951e+000dB,6.25271079550013e+001°)
1.78237876744807e+001	(-8.36902890537836e+000dB,6.24755665182298e+001°)
1.78648757485203e+001	(-8.35384892059096e+000dB,6.24239756959455e+001°)
1.79060585403527e+001	(-8.33868184898915e+000dB,6.23723355043410e+001°)
1.79473362683250e+001	(-8.32352771563622e+000dB,6.23206459600542e+001°)
1.79887091512877e+001	(-8.30838654564681e+000dB,6.22689070801736e+001°)
1.80301774085955e+001	(-8.29325836418696e+000dB,6.22171188822413e+001°)
1.80717412601090e+001	(-8.27814319647411e+000dB,6.21652813842582e+001°)
1.81134009261958e+001	(-8.26304106777704e+000dB,6.21133946046876e+001°)
1.81551566277311e+001	(-8.24795200341585e+000dB,6.20614585624595e+001°)
1.81970085860996e+001	(-8.23287602876197e+000dB,6.20094732769757e+001°)
1.82389570231961e+001	(-8.21781316923810e+000dB,6.19574387681136e+001°)
1.82810021614272e+001	(-8.20276345031816e+000dB,6.19053550562303e+001°)
1.83231442237119e+001	(-8.18772689752726e+000dB,6.18532221621677e+001°)
1.83653834334832e+001	(-8.17270353644163e+000dB,6.18010401072561e+001°)
1.84077200146893e+001	(-8.15769339268858e+000dB,6.17488089133191e+001°)
1.84501541917945e+001	(-8.14269649194645e+000dB,6.16965286026779e+001°)
1.84926861897805e+001	(-8.12771285994445e+000dB,6.16441991981557e+001°)
1.85353162341479e+001	(-8.11274252246266e+000dB,6.15918207230829e+001°)
1.85780445509167e+001	(-8.09778550533192e+000dB,6.15393932012999e+001°)
1.86208713666284e+001	(-8.08284183443372e+000dB,6.14869166571633e+001°)
1.86637969083464e+001	(-8.06791153570018e+000dB,6.14343911155497e+001°)
1.87068214036578e+001	(-8.05299463511377e+000dB,6.13818166018605e+001°)
1.87499450806739e+001	(-8.03809115870740e+000dB,6.13291931420257e+001°)
1.87931681680324e+001	(-8.02320113256419e+000dB,6.12765207625098e+001°)
1.88364908948977e+001	(-8.00832458281728e+000dB,6.12237994903149e+001°)
1.88799134909627e+001	(-7.99346153564987e+000dB,6.11710293529866e+001°)
