Freq.	V(vo)
1.00000000000000e+001	(-1.25181902658315e+001dB,7.38495569967307e+001°)
1.00023028502082e+001	(-1.25164168962682e+001dB,7.38456177427969e+001°)
1.00046062307284e+001	(-1.25146436043387e+001dB,7.38416780326467e+001°)
1.00069101416826e+001	(-1.25128703900611e+001dB,7.38377378662430e+001°)
1.00092145831930e+001	(-1.25110972534532e+001dB,7.38337972435492e+001°)
1.00115195553817e+001	(-1.25093241945330e+001dB,7.38298561645284e+001°)
1.00138250583710e+001	(-1.25075512133185e+001dB,7.38259146291439e+001°)
1.00161310922831e+001	(-1.25057783098277e+001dB,7.38219726373586e+001°)
1.00184376572403e+001	(-1.25040054840784e+001dB,7.38180301891362e+001°)
1.00207447533648e+001	(-1.25022327360887e+001dB,7.38140872844396e+001°)
1.00230523807790e+001	(-1.25004600658765e+001dB,7.38101439232322e+001°)
1.00253605396052e+001	(-1.24986874734598e+001dB,7.38062001054772e+001°)
1.00276692299659e+001	(-1.24969149588566e+001dB,7.38022558311380e+001°)
1.00299784519833e+001	(-1.24951425220848e+001dB,7.37983111001780e+001°)
1.00322882057800e+001	(-1.24933701631623e+001dB,7.37943659125603e+001°)
1.00345984914784e+001	(-1.24915978821072e+001dB,7.37904202682487e+001°)
1.00369093092010e+001	(-1.24898256789374e+001dB,7.37864741672062e+001°)
1.00392206590702e+001	(-1.24880535536709e+001dB,7.37825276093965e+001°)
1.00415325412088e+001	(-1.24862815063257e+001dB,7.37785805947828e+001°)
1.00438449557391e+001	(-1.24845095369197e+001dB,7.37746331233288e+001°)
1.00461579027839e+001	(-1.24827376454710e+001dB,7.37706851949978e+001°)
1.00484713824658e+001	(-1.24809658319973e+001dB,7.37667368097535e+001°)
1.00507853949074e+001	(-1.24791940965169e+001dB,7.37627879675593e+001°)
1.00530999402313e+001	(-1.24774224390476e+001dB,7.37588386683787e+001°)
1.00554150185604e+001	(-1.24756508596074e+001dB,7.37548889121750e+001°)
1.00577306300174e+001	(-1.24738793582143e+001dB,7.37509386989125e+001°)
1.00600467747250e+001	(-1.24721079348862e+001dB,7.37469880285544e+001°)
1.00623634528060e+001	(-1.24703365896412e+001dB,7.37430369010641e+001°)
1.00646806643832e+001	(-1.24685653224972e+001dB,7.37390853164056e+001°)
1.00669984095796e+001	(-1.24667941334723e+001dB,7.37351332745425e+001°)
1.00693166885180e+001	(-1.24650230225843e+001dB,7.37311807754385e+001°)
1.00716355013213e+001	(-1.24632519898514e+001dB,7.37272278190572e+001°)
1.00739548481125e+001	(-1.24614810352914e+001dB,7.37232744053625e+001°)
1.00762747290145e+001	(-1.24597101589223e+001dB,7.37193205343178e+001°)
1.00785951441503e+001	(-1.24579393607622e+001dB,7.37153662058872e+001°)
1.00809160936429e+001	(-1.24561686408291e+001dB,7.37114114200344e+001°)
1.00832375776155e+001	(-1.24543979991409e+001dB,7.37074561767233e+001°)
1.00855595961910e+001	(-1.24526274357155e+001dB,7.37035004759177e+001°)
1.00878821494927e+001	(-1.24508569505711e+001dB,7.36995443175812e+001°)
1.00902052376435e+001	(-1.24490865437256e+001dB,7.36955877016781e+001°)
1.00925288607668e+001	(-1.24473162151970e+001dB,7.36916306281721e+001°)
1.00948530189857e+001	(-1.24455459650033e+001dB,7.36876730970269e+001°)
1.00971777124234e+001	(-1.24437757931625e+001dB,7.36837151082067e+001°)
1.00995029412032e+001	(-1.24420056996926e+001dB,7.36797566616756e+001°)
1.01018287054483e+001	(-1.24402356846116e+001dB,7.36757977573972e+001°)
1.01041550052821e+001	(-1.24384657479374e+001dB,7.36718383953357e+001°)
1.01064818408279e+001	(-1.24366958896881e+001dB,7.36678785754549e+001°)
1.01088092122091e+001	(-1.24349261098818e+001dB,7.36639182977192e+001°)
1.01111371195490e+001	(-1.24331564085363e+001dB,7.36599575620926e+001°)
1.01134655629712e+001	(-1.24313867856697e+001dB,7.36559963685389e+001°)
1.01157945425990e+001	(-1.24296172413001e+001dB,7.36520347170225e+001°)
1.01181240585559e+001	(-1.24278477754453e+001dB,7.36480726075075e+001°)
1.01204541109654e+001	(-1.24260783881235e+001dB,7.36441100399577e+001°)
1.01227846999511e+001	(-1.24243090793526e+001dB,7.36401470143376e+001°)
1.01251158256365e+001	(-1.24225398491506e+001dB,7.36361835306113e+001°)
1.01274474881453e+001	(-1.24207706975356e+001dB,7.36322195887429e+001°)
1.01297796876010e+001	(-1.24190016245256e+001dB,7.36282551886968e+001°)
1.01321124241273e+001	(-1.24172326301385e+001dB,7.36242903304373e+001°)
1.01344456978479e+001	(-1.24154637143924e+001dB,7.36203250139282e+001°)
1.01367795088865e+001	(-1.24136948773053e+001dB,7.36163592391343e+001°)
1.01391138573668e+001	(-1.24119261188953e+001dB,7.36123930060198e+001°)
1.01414487434125e+001	(-1.24101574391803e+001dB,7.36084263145488e+001°)
1.01437841671476e+001	(-1.24083888381783e+001dB,7.36044591646860e+001°)
1.01461201286958e+001	(-1.24066203159074e+001dB,7.36004915563953e+001°)
1.01484566281809e+001	(-1.24048518723856e+001dB,7.35965234896415e+001°)
1.01507936657269e+001	(-1.24030835076309e+001dB,7.35925549643889e+001°)
1.01531312414576e+001	(-1.24013152216614e+001dB,7.35885859806017e+001°)
1.01554693554969e+001	(-1.23995470144950e+001dB,7.35846165382445e+001°)
1.01578080079690e+001	(-1.23977788861498e+001dB,7.35806466372819e+001°)
1.01601471989976e+001	(-1.23960108366438e+001dB,7.35766762776784e+001°)
1.01624869287069e+001	(-1.23942428659951e+001dB,7.35727054593984e+001°)
1.01648271972209e+001	(-1.23924749742216e+001dB,7.35687341824063e+001°)
1.01671680046637e+001	(-1.23907071613414e+001dB,7.35647624466668e+001°)
1.01695093511594e+001	(-1.23889394273726e+001dB,7.35607902521446e+001°)
1.01718512368321e+001	(-1.23871717723331e+001dB,7.35568175988040e+001°)
1.01741936618060e+001	(-1.23854041962410e+001dB,7.35528444866097e+001°)
1.01765366262053e+001	(-1.23836366991143e+001dB,7.35488709155265e+001°)
1.01788801301542e+001	(-1.23818692809711e+001dB,7.35448968855190e+001°)
1.01812241737769e+001	(-1.23801019418294e+001dB,7.35409223965517e+001°)
1.01835687571978e+001	(-1.23783346817072e+001dB,7.35369474485894e+001°)
1.01859138805411e+001	(-1.23765675006226e+001dB,7.35329720415969e+001°)
1.01882595439312e+001	(-1.23748003985936e+001dB,7.35289961755388e+001°)
1.01906057474925e+001	(-1.23730333756382e+001dB,7.35250198503800e+001°)
1.01929524913492e+001	(-1.23712664317745e+001dB,7.35210430660849e+001°)
1.01952997756260e+001	(-1.23694995670206e+001dB,7.35170658226189e+001°)
1.01976476004471e+001	(-1.23677327813944e+001dB,7.35130881199464e+001°)
1.01999959659371e+001	(-1.23659660749140e+001dB,7.35091099580323e+001°)
1.02023448722206e+001	(-1.23641994475975e+001dB,7.35051313368415e+001°)
1.02046943194219e+001	(-1.23624328994629e+001dB,7.35011522563387e+001°)
1.02070443076658e+001	(-1.23606664305282e+001dB,7.34971727164891e+001°)
1.02093948370767e+001	(-1.23589000408116e+001dB,7.34931927172574e+001°)
1.02117459077794e+001	(-1.23571337303310e+001dB,7.34892122586087e+001°)
1.02140975198984e+001	(-1.23553674991045e+001dB,7.34852313405076e+001°)
1.02164496735585e+001	(-1.23536013471501e+001dB,7.34812499629196e+001°)
1.02188023688843e+001	(-1.23518352744860e+001dB,7.34772681258094e+001°)
1.02211556060007e+001	(-1.23500692811301e+001dB,7.34732858291420e+001°)
1.02235093850322e+001	(-1.23483033671005e+001dB,7.34693030728824e+001°)
1.02258637061039e+001	(-1.23465375324153e+001dB,7.34653198569958e+001°)
1.02282185693404e+001	(-1.23447717770925e+001dB,7.34613361814471e+001°)
1.02305739748666e+001	(-1.23430061011502e+001dB,7.34573520462018e+001°)
1.02329299228075e+001	(-1.23412405046064e+001dB,7.34533674512244e+001°)
1.02352864132878e+001	(-1.23394749874792e+001dB,7.34493823964806e+001°)
1.02376434464327e+001	(-1.23377095497867e+001dB,7.34453968819353e+001°)
1.02400010223669e+001	(-1.23359441915469e+001dB,7.34414109075536e+001°)
1.02423591412156e+001	(-1.23341789127779e+001dB,7.34374244733008e+001°)
1.02447178031037e+001	(-1.23324137134977e+001dB,7.34334375791422e+001°)
1.02470770081564e+001	(-1.23306485937245e+001dB,7.34294502250428e+001°)
1.02494367564986e+001	(-1.23288835534762e+001dB,7.34254624109682e+001°)
1.02517970482555e+001	(-1.23271185927709e+001dB,7.34214741368834e+001°)
1.02541578835522e+001	(-1.23253537116268e+001dB,7.34174854027537e+001°)
1.02565192625140e+001	(-1.23235889100619e+001dB,7.34134962085446e+001°)
1.02588811852660e+001	(-1.23218241880942e+001dB,7.34095065542213e+001°)
1.02612436519333e+001	(-1.23200595457418e+001dB,7.34055164397492e+001°)
1.02636066626414e+001	(-1.23182949830229e+001dB,7.34015258650937e+001°)
1.02659702175155e+001	(-1.23165304999554e+001dB,7.33975348302203e+001°)
1.02683343166808e+001	(-1.23147660965575e+001dB,7.33935433350940e+001°)
1.02706989602627e+001	(-1.23130017728471e+001dB,7.33895513796807e+001°)
1.02730641483867e+001	(-1.23112375288425e+001dB,7.33855589639457e+001°)
1.02754298811780e+001	(-1.23094733645616e+001dB,7.33815660878544e+001°)
1.02777961587622e+001	(-1.23077092800227e+001dB,7.33775727513725e+001°)
1.02801629812646e+001	(-1.23059452752436e+001dB,7.33735789544653e+001°)
1.02825303488109e+001	(-1.23041813502425e+001dB,7.33695846970983e+001°)
1.02848982615264e+001	(-1.23024175050376e+001dB,7.33655899792373e+001°)
1.02872667195367e+001	(-1.23006537396468e+001dB,7.33615948008477e+001°)
1.02896357229675e+001	(-1.22988900540883e+001dB,7.33575991618951e+001°)
1.02920052719442e+001	(-1.22971264483801e+001dB,7.33536030623454e+001°)
1.02943753665926e+001	(-1.22953629225403e+001dB,7.33496065021639e+001°)
1.02967460070382e+001	(-1.22935994765871e+001dB,7.33456094813164e+001°)
1.02991171934069e+001	(-1.22918361105385e+001dB,7.33416119997685e+001°)
1.03014889258243e+001	(-1.22900728244126e+001dB,7.33376140574858e+001°)
1.03038612044161e+001	(-1.22883096182274e+001dB,7.33336156544342e+001°)
1.03062340293081e+001	(-1.22865464920012e+001dB,7.33296167905795e+001°)
1.03086074006262e+001	(-1.22847834457519e+001dB,7.33256174658874e+001°)
1.03109813184961e+001	(-1.22830204794977e+001dB,7.33216176803234e+001°)
1.03133557830437e+001	(-1.22812575932566e+001dB,7.33176174338538e+001°)
1.03157307943950e+001	(-1.22794947870468e+001dB,7.33136167264440e+001°)
1.03181063526758e+001	(-1.22777320608863e+001dB,7.33096155580598e+001°)
1.03204824580121e+001	(-1.22759694147933e+001dB,7.33056139286675e+001°)
1.03228591105299e+001	(-1.22742068487859e+001dB,7.33016118382327e+001°)
1.03252363103551e+001	(-1.22724443628821e+001dB,7.32976092867213e+001°)
1.03276140576139e+001	(-1.22706819571000e+001dB,7.32936062740991e+001°)
1.03299923524322e+001	(-1.22689196314578e+001dB,7.32896028003322e+001°)
1.03323711949362e+001	(-1.22671573859735e+001dB,7.32855988653865e+001°)
1.03347505852520e+001	(-1.22653952206653e+001dB,7.32815944692280e+001°)
1.03371305235057e+001	(-1.22636331355512e+001dB,7.32775896118227e+001°)
1.03395110098236e+001	(-1.22618711306494e+001dB,7.32735842931366e+001°)
1.03418920443318e+001	(-1.22601092059780e+001dB,7.32695785131358e+001°)
1.03442736271566e+001	(-1.22583473615551e+001dB,7.32655722717862e+001°)
1.03466557584243e+001	(-1.22565855973987e+001dB,7.32615655690538e+001°)
1.03490384382611e+001	(-1.22548239135271e+001dB,7.32575584049051e+001°)
1.03514216667933e+001	(-1.22530623099582e+001dB,7.32535507793059e+001°)
1.03538054441474e+001	(-1.22513007867104e+001dB,7.32495426922225e+001°)
1.03561897704498e+001	(-1.22495393438015e+001dB,7.32455341436208e+001°)
1.03585746458267e+001	(-1.22477779812498e+001dB,7.32415251334670e+001°)
1.03609600704047e+001	(-1.22460166990733e+001dB,7.32375156617276e+001°)
1.03633460443103e+001	(-1.22442554972902e+001dB,7.32335057283687e+001°)
1.03657325676699e+001	(-1.22424943759186e+001dB,7.32294953333563e+001°)
1.03681196406101e+001	(-1.22407333349767e+001dB,7.32254844766569e+001°)
1.03705072632575e+001	(-1.22389723744825e+001dB,7.32214731582366e+001°)
1.03728954357386e+001	(-1.22372114944541e+001dB,7.32174613780618e+001°)
1.03752841581800e+001	(-1.22354506949097e+001dB,7.32134491360990e+001°)
1.03776734307084e+001	(-1.22336899758675e+001dB,7.32094364323142e+001°)
1.03800632534505e+001	(-1.22319293373454e+001dB,7.32054232666736e+001°)
1.03824536265330e+001	(-1.22301687793617e+001dB,7.32014096391442e+001°)
1.03848445500826e+001	(-1.22284083019345e+001dB,7.31973955496917e+001°)
1.03872360242261e+001	(-1.22266479050819e+001dB,7.31933809982831e+001°)
1.03896280490902e+001	(-1.22248875888220e+001dB,7.31893659848844e+001°)
1.03920206248019e+001	(-1.22231273531730e+001dB,7.31853505094623e+001°)
1.03944137514879e+001	(-1.22213671981530e+001dB,7.31813345719832e+001°)
1.03968074292751e+001	(-1.22196071237801e+001dB,7.31773181724135e+001°)
1.03992016582905e+001	(-1.22178471300724e+001dB,7.31733013107197e+001°)
1.04015964386609e+001	(-1.22160872170482e+001dB,7.31692839868685e+001°)
1.04039917705134e+001	(-1.22143273847254e+001dB,7.31652662008263e+001°)
1.04063876539749e+001	(-1.22125676331223e+001dB,7.31612479525596e+001°)
1.04087840891725e+001	(-1.22108079622571e+001dB,7.31572292420353e+001°)
1.04111810762333e+001	(-1.22090483721477e+001dB,7.31532100692196e+001°)
1.04135786152842e+001	(-1.22072888628124e+001dB,7.31491904340795e+001°)
1.04159767064525e+001	(-1.22055294342693e+001dB,7.31451703365814e+001°)
1.04183753498653e+001	(-1.22037700865366e+001dB,7.31411497766920e+001°)
1.04207745456497e+001	(-1.22020108196324e+001dB,7.31371287543780e+001°)
1.04231742939329e+001	(-1.22002516335748e+001dB,7.31331072696061e+001°)
1.04255745948422e+001	(-1.21984925283820e+001dB,7.31290853223431e+001°)
1.04279754485049e+001	(-1.21967335040721e+001dB,7.31250629125555e+001°)
1.04303768550482e+001	(-1.21949745606632e+001dB,7.31210400402105e+001°)
1.04327788145995e+001	(-1.21932156981736e+001dB,7.31170167052745e+001°)
1.04351813272861e+001	(-1.21914569166213e+001dB,7.31129929077143e+001°)
1.04375843932354e+001	(-1.21896982160246e+001dB,7.31089686474970e+001°)
1.04399880125747e+001	(-1.21879395964015e+001dB,7.31049439245893e+001°)
1.04423921854316e+001	(-1.21861810577703e+001dB,7.31009187389579e+001°)
1.04447969119335e+001	(-1.21844226001489e+001dB,7.30968930905697e+001°)
1.04472021922079e+001	(-1.21826642235557e+001dB,7.30928669793919e+001°)
1.04496080263823e+001	(-1.21809059280088e+001dB,7.30888404053911e+001°)
1.04520144145842e+001	(-1.21791477135263e+001dB,7.30848133685345e+001°)
1.04544213569413e+001	(-1.21773895801264e+001dB,7.30807858687888e+001°)
1.04568288535812e+001	(-1.21756315278273e+001dB,7.30767579061211e+001°)
1.04592369046315e+001	(-1.21738735566470e+001dB,7.30727294804984e+001°)
1.04616455102199e+001	(-1.21721156666038e+001dB,7.30687005918876e+001°)
1.04640546704741e+001	(-1.21703578577158e+001dB,7.30646712402560e+001°)
1.04664643855218e+001	(-1.21686001300011e+001dB,7.30606414255703e+001°)
1.04688746554908e+001	(-1.21668424834781e+001dB,7.30566111477979e+001°)
1.04712854805088e+001	(-1.21650849181647e+001dB,7.30525804069056e+001°)
1.04736968607038e+001	(-1.21633274340792e+001dB,7.30485492028607e+001°)
1.04761087962035e+001	(-1.21615700312397e+001dB,7.30445175356304e+001°)
1.04785212871358e+001	(-1.21598127096645e+001dB,7.30404854051815e+001°)
1.04809343336286e+001	(-1.21580554693716e+001dB,7.30364528114816e+001°)
1.04833479358099e+001	(-1.21562983103792e+001dB,7.30324197544976e+001°)
1.04857620938076e+001	(-1.21545412327056e+001dB,7.30283862341967e+001°)
1.04881768077497e+001	(-1.21527842363688e+001dB,7.30243522505463e+001°)
1.04905920777643e+001	(-1.21510273213870e+001dB,7.30203178035135e+001°)
1.04930079039794e+001	(-1.21492704877786e+001dB,7.30162828930657e+001°)
1.04954242865231e+001	(-1.21475137355615e+001dB,7.30122475191700e+001°)
1.04978412255235e+001	(-1.21457570647539e+001dB,7.30082116817939e+001°)
1.05002587211087e+001	(-1.21440004753742e+001dB,7.30041753809048e+001°)
1.05026767734069e+001	(-1.21422439674403e+001dB,7.30001386164696e+001°)
1.05050953825464e+001	(-1.21404875409706e+001dB,7.29961013884560e+001°)
1.05075145486554e+001	(-1.21387311959831e+001dB,7.29920636968314e+001°)
1.05099342718620e+001	(-1.21369749324961e+001dB,7.29880255415630e+001°)
1.05123545522947e+001	(-1.21352187505278e+001dB,7.29839869226184e+001°)
1.05147753900817e+001	(-1.21334626500962e+001dB,7.29799478399649e+001°)
1.05171967853513e+001	(-1.21317066312197e+001dB,7.29759082935701e+001°)
1.05196187382321e+001	(-1.21299506939164e+001dB,7.29718682834014e+001°)
1.05220412488523e+001	(-1.21281948382045e+001dB,7.29678278094263e+001°)
1.05244643173404e+001	(-1.21264390641021e+001dB,7.29637868716122e+001°)
1.05268879438249e+001	(-1.21246833716274e+001dB,7.29597454699268e+001°)
1.05293121284342e+001	(-1.21229277607988e+001dB,7.29557036043378e+001°)
1.05317368712970e+001	(-1.21211722316342e+001dB,7.29516612748124e+001°)
1.05341621725417e+001	(-1.21194167841520e+001dB,7.29476184813182e+001°)
1.05365880322970e+001	(-1.21176614183703e+001dB,7.29435752238232e+001°)
1.05390144506914e+001	(-1.21159061343073e+001dB,7.29395315022948e+001°)
1.05414414278537e+001	(-1.21141509319812e+001dB,7.29354873167005e+001°)
1.05438689639124e+001	(-1.21123958114102e+001dB,7.29314426670084e+001°)
1.05462970589963e+001	(-1.21106407726125e+001dB,7.29273975531855e+001°)
1.05487257132342e+001	(-1.21088858156063e+001dB,7.29233519752002e+001°)
1.05511549267547e+001	(-1.21071309404098e+001dB,7.29193059330198e+001°)
1.05535846996868e+001	(-1.21053761470411e+001dB,7.29152594266123e+001°)
1.05560150321591e+001	(-1.21036214355186e+001dB,7.29112124559453e+001°)
1.05584459243006e+001	(-1.21018668058603e+001dB,7.29071650209866e+001°)
1.05608773762402e+001	(-1.21001122580846e+001dB,7.29031171217040e+001°)
1.05633093881067e+001	(-1.20983577922095e+001dB,7.28990687580654e+001°)
1.05657419600291e+001	(-1.20966034082533e+001dB,7.28950199300385e+001°)
1.05681750921364e+001	(-1.20948491062342e+001dB,7.28909706375914e+001°)
1.05706087845576e+001	(-1.20930948861705e+001dB,7.28869208806916e+001°)
1.05730430374217e+001	(-1.20913407480802e+001dB,7.28828706593073e+001°)
1.05754778508577e+001	(-1.20895866919817e+001dB,7.28788199734065e+001°)
1.05779132249948e+001	(-1.20878327178931e+001dB,7.28747688229568e+001°)
1.05803491599621e+001	(-1.20860788258327e+001dB,7.28707172079263e+001°)
1.05827856558888e+001	(-1.20843250158186e+001dB,7.28666651282831e+001°)
1.05852227129039e+001	(-1.20825712878691e+001dB,7.28626125839950e+001°)
1.05876603311368e+001	(-1.20808176420023e+001dB,7.28585595750301e+001°)
1.05900985107166e+001	(-1.20790640782366e+001dB,7.28545061013564e+001°)
1.05925372517727e+001	(-1.20773105965901e+001dB,7.28504521629421e+001°)
1.05949765544343e+001	(-1.20755571970811e+001dB,7.28463977597551e+001°)
1.05974164188308e+001	(-1.20738038797276e+001dB,7.28423428917635e+001°)
1.05998568450915e+001	(-1.20720506445481e+001dB,7.28382875589353e+001°)
1.06022978333458e+001	(-1.20702974915606e+001dB,7.28342317612390e+001°)
1.06047393837231e+001	(-1.20685444207834e+001dB,7.28301754986422e+001°)
1.06071814963530e+001	(-1.20667914322348e+001dB,7.28261187711136e+001°)
1.06096241713647e+001	(-1.20650385259329e+001dB,7.28220615786211e+001°)
1.06120674088880e+001	(-1.20632857018961e+001dB,7.28180039211329e+001°)
1.06145112090522e+001	(-1.20615329601424e+001dB,7.28139457986171e+001°)
1.06169555719870e+001	(-1.20597803006901e+001dB,7.28098872110423e+001°)
1.06194004978220e+001	(-1.20580277235575e+001dB,7.28058281583767e+001°)
1.06218459866868e+001	(-1.20562752287629e+001dB,7.28017686405881e+001°)
1.06242920387111e+001	(-1.20545228163243e+001dB,7.27977086576452e+001°)
1.06267386540244e+001	(-1.20527704862600e+001dB,7.27936482095163e+001°)
1.06291858327567e+001	(-1.20510182385884e+001dB,7.27895872961698e+001°)
1.06316335750375e+001	(-1.20492660733275e+001dB,7.27855259175738e+001°)
1.06340818809968e+001	(-1.20475139904957e+001dB,7.27814640736968e+001°)
1.06365307507642e+001	(-1.20457619901112e+001dB,7.27774017645071e+001°)
1.06389801844696e+001	(-1.20440100721922e+001dB,7.27733389899732e+001°)
1.06414301822429e+001	(-1.20422582367570e+001dB,7.27692757500635e+001°)
1.06438807442141e+001	(-1.20405064838237e+001dB,7.27652120447464e+001°)
1.06463318705129e+001	(-1.20387548134107e+001dB,7.27611478739906e+001°)
1.06487835612694e+001	(-1.20370032255362e+001dB,7.27570832377643e+001°)
1.06512358166136e+001	(-1.20352517202183e+001dB,7.27530181360360e+001°)
1.06536886366754e+001	(-1.20335002974754e+001dB,7.27489525687746e+001°)
1.06561420215850e+001	(-1.20317489573258e+001dB,7.27448865359480e+001°)
