Freq.	-I(R)/I(Rl)
1.00000000000000e+000	(8.74787525645517e+001dB,-8.99639917552185e+001°)
1.00046062307284e+000	(8.74747525661325e+001dB,-8.99639751711245e+001°)
1.00092145831930e+000	(8.74707525677146e+001dB,-8.99639585751494e+001°)
1.00138250583710e+000	(8.74667525692970e+001dB,-8.99639419753815e+001°)
1.00184376572403e+000	(8.74627525708821e+001dB,-8.99639253637256e+001°)
1.00230523807790e+000	(8.74587525724686e+001dB,-8.99639087482625e+001°)
1.00276692299659e+000	(8.74547525740566e+001dB,-8.99638921249430e+001°)
1.00322882057800e+000	(8.74507525756461e+001dB,-8.99638754917435e+001°)
1.00369093092010e+000	(8.74467525772370e+001dB,-8.99638588526961e+001°)
1.00415325412088e+000	(8.74427525788281e+001dB,-8.99638422037601e+001°)
1.00461579027840e+000	(8.74387525804220e+001dB,-8.99638255489637e+001°)
1.00507853949074e+000	(8.74347525820173e+001dB,-8.99638088862844e+001°)
1.00554150185604e+000	(8.74307525836141e+001dB,-8.99637922197443e+001°)
1.00600467747250e+000	(8.74267525852123e+001dB,-8.99637755372560e+001°)
1.00646806643833e+000	(8.74227525868121e+001dB,-8.99637588529081e+001°)
1.00693166885180e+000	(8.74187525884121e+001dB,-8.99637421606542e+001°)
1.00739548481125e+000	(8.74147525900147e+001dB,-8.99637254564692e+001°)
1.00785951441503e+000	(8.74107525916189e+001dB,-8.99637087483895e+001°)
1.00832375776155e+000	(8.74067525932245e+001dB,-8.99636920303799e+001°)
1.00878821494927e+000	(8.74027525948317e+001dB,-8.99636753104665e+001°)
1.00925288607668e+000	(8.73987525964402e+001dB,-8.99636585745921e+001°)
1.00971777124234e+000	(8.73947525980491e+001dB,-8.99636418367996e+001°)
1.01018287054483e+000	(8.73907525996606e+001dB,-8.99636250890580e+001°)
1.01064818408279e+000	(8.73867526012736e+001dB,-8.99636083313646e+001°)
1.01111371195491e+000	(8.73827526028881e+001dB,-8.99635915717271e+001°)
1.01157945425990e+000	(8.73787526045042e+001dB,-8.99635748001239e+001°)
1.01204541109654e+000	(8.73747526061217e+001dB,-8.99635580205566e+001°)
1.01251158256366e+000	(8.73707526077394e+001dB,-8.99635412370194e+001°)
1.01297796876010e+000	(8.73667526093599e+001dB,-8.99635244415061e+001°)
1.01344456978479e+000	(8.73627526109818e+001dB,-8.99635076420086e+001°)
1.01391138573668e+000	(8.73587526126053e+001dB,-8.99634908305282e+001°)
1.01437841671477e+000	(8.73547526142303e+001dB,-8.99634740130532e+001°)
1.01484566281810e+000	(8.73507526158568e+001dB,-8.99634571895758e+001°)
1.01531312414576e+000	(8.73467526174834e+001dB,-8.99634403560992e+001°)
1.01578080079690e+000	(8.73427526191128e+001dB,-8.99634235166077e+001°)
1.01624869287070e+000	(8.73387526207438e+001dB,-8.99634066671084e+001°)
1.01671680046638e+000	(8.73347526223763e+001dB,-8.99633898115817e+001°)
1.01718512368322e+000	(8.73307526240103e+001dB,-8.99633729500196e+001°)
1.01765366262053e+000	(8.73267526256457e+001dB,-8.99633560784347e+001°)
1.01812241737770e+000	(8.73227526272814e+001dB,-8.99633391988132e+001°)
1.01859138805412e+000	(8.73187526289198e+001dB,-8.99633223131377e+001°)
1.01906057474925e+000	(8.73147526305599e+001dB,-8.99633054194132e+001°)
1.01952997756260e+000	(8.73107526322014e+001dB,-8.99632885136624e+001°)
1.01999959659372e+000	(8.73067526338444e+001dB,-8.99632716058111e+001°)
1.02046943194220e+000	(8.73027526354889e+001dB,-8.99632546859246e+001°)
1.02093948370768e+000	(8.72987526371362e+001dB,-8.99632377619364e+001°)
1.02140975198985e+000	(8.72947526387825e+001dB,-8.99632208298710e+001°)
1.02188023688844e+000	(8.72907526404316e+001dB,-8.99632038837787e+001°)
1.02235093850323e+000	(8.72867526420822e+001dB,-8.99631869355456e+001°)
1.02282185693405e+000	(8.72827526437343e+001dB,-8.99631699831787e+001°)
1.02329299228076e+000	(8.72787526453879e+001dB,-8.99631530187523e+001°)
1.02376434464328e+000	(8.72747526470431e+001dB,-8.99631360462221e+001°)
1.02423591412157e+000	(8.72707526486997e+001dB,-8.99631190636062e+001°)
1.02470770081565e+000	(8.72667526503567e+001dB,-8.99631020748538e+001°)
1.02517970482556e+000	(8.72627526520164e+001dB,-8.99630850799568e+001°)
1.02565192625141e+000	(8.72587526536776e+001dB,-8.99630680749591e+001°)
1.02612436519334e+000	(8.72547526553404e+001dB,-8.99630510657777e+001°)
1.02659702175156e+000	(8.72507526570047e+001dB,-8.99630340445126e+001°)
1.02706989602628e+000	(8.72467526586706e+001dB,-8.99630170151068e+001°)
1.02754298811781e+000	(8.72427526603380e+001dB,-8.99629999814961e+001°)
1.02801629812647e+000	(8.72387526620055e+001dB,-8.99629829377608e+001°)
1.02848982615265e+000	(8.72347526636760e+001dB,-8.99629658878358e+001°)
1.02896357229676e+000	(8.72307526653480e+001dB,-8.99629488297454e+001°)
1.02943753665927e+000	(8.72267526670216e+001dB,-8.99629317615172e+001°)
1.02991171934070e+000	(8.72227526686966e+001dB,-8.99629146870809e+001°)
1.03038612044162e+000	(8.72187526703732e+001dB,-8.99628976064283e+001°)
1.03086074006263e+000	(8.72147526720514e+001dB,-8.99628805156230e+001°)
1.03133557830439e+000	(8.72107526737311e+001dB,-8.99628634166258e+001°)
1.03181063526759e+000	(8.72067526754111e+001dB,-8.99628463133562e+001°)
1.03228591105300e+000	(8.72027526770939e+001dB,-8.99628291959960e+001°)
1.03276140576140e+000	(8.71987526787782e+001dB,-8.99628120743510e+001°)
1.03323711949363e+000	(8.71947526804641e+001dB,-8.99627949444912e+001°)
1.03371305235059e+000	(8.71907526821516e+001dB,-8.99627778064111e+001°)
1.03418920443319e+000	(8.71867526838406e+001dB,-8.99627606601057e+001°)
1.03466557584244e+000	(8.71827526855312e+001dB,-8.99627435094834e+001°)
1.03514216667935e+000	(8.71787526872233e+001dB,-8.99627263486654e+001°)
1.03561897704499e+000	(8.71747526889156e+001dB,-8.99627091796043e+001°)
1.03609600704049e+000	(8.71707526906109e+001dB,-8.99626920022948e+001°)
1.03657325676701e+000	(8.71667526923077e+001dB,-8.99626748167317e+001°)
1.03705072632576e+000	(8.71627526940060e+001dB,-8.99626576248620e+001°)
1.03752841581801e+000	(8.71587526957059e+001dB,-8.99626404247263e+001°)
1.03800632534507e+000	(8.71547526974074e+001dB,-8.99626232124179e+001°)
1.03848445500828e+000	(8.71507526991105e+001dB,-8.99626059996355e+001°)
1.03896280490904e+000	(8.71467527008151e+001dB,-8.99625887727210e+001°)
1.03944137514880e+000	(8.71427527025200e+001dB,-8.99625715414171e+001°)
1.03992016582906e+000	(8.71387527042278e+001dB,-8.99625543037660e+001°)
1.04039917705135e+000	(8.71347527059371e+001dB,-8.99625370519749e+001°)
1.04087840891727e+000	(8.71307527076480e+001dB,-8.99625197977185e+001°)
1.04135786152844e+000	(8.71267527093605e+001dB,-8.99625025332058e+001°)
1.04183753498654e+000	(8.71227527110746e+001dB,-8.99624852623211e+001°)
1.04231742939331e+000	(8.71187527127902e+001dB,-8.99624679811713e+001°)
1.04279754485051e+000	(8.71147527145074e+001dB,-8.99624506916955e+001°)
1.04327788145997e+000	(8.71107527162262e+001dB,-8.99624333938885e+001°)
1.04375843932355e+000	(8.71067527179453e+001dB,-8.99624160916247e+001°)
1.04423921854318e+000	(8.71027527196673e+001dB,-8.99623987810155e+001°)
1.04472021922080e+000	(8.70987527213908e+001dB,-8.99623814581794e+001°)
1.04520144145844e+000	(8.70947527231159e+001dB,-8.99623641328025e+001°)
1.04568288535814e+000	(8.70907527248427e+001dB,-8.99623467932535e+001°)
1.04616455102201e+000	(8.70867527265710e+001dB,-8.99623294530833e+001°)
1.04664643855220e+000	(8.70827527283009e+001dB,-8.99623121006686e+001°)
1.04712854805090e+000	(8.70787527300324e+001dB,-8.99622947379431e+001°)
1.04761087962036e+000	(8.70747527317655e+001dB,-8.99622773726353e+001°)
1.04809343336288e+000	(8.70707527335009e+001dB,-8.99622599970044e+001°)
1.04857620938077e+000	(8.70667527352358e+001dB,-8.99622426110476e+001°)
1.04905920777645e+000	(8.70627527369737e+001dB,-8.99622252205528e+001°)
1.04954242865232e+000	(8.70587527387132e+001dB,-8.99622078197217e+001°)
1.05002587211089e+000	(8.70547527404543e+001dB,-8.99621904143366e+001°)
1.05050953825466e+000	(8.70507527421970e+001dB,-8.99621729947497e+001°)
1.05099342718622e+000	(8.70467527439413e+001dB,-8.99621555725231e+001°)
1.05147753900818e+000	(8.70427527456872e+001dB,-8.99621381418664e+001°)
1.05196187382323e+000	(8.70387527474347e+001dB,-8.99621207027745e+001°)
1.05244643173406e+000	(8.70347527491838e+001dB,-8.99621032552419e+001°)
1.05293121284344e+000	(8.70307527509346e+001dB,-8.99620857954174e+001°)
1.05341621725419e+000	(8.70267527526856e+001dB,-8.99620683309895e+001°)
1.05390144506916e+000	(8.70227527544396e+001dB,-8.99620508600264e+001°)
1.05438689639126e+000	(8.70187527561951e+001dB,-8.99620333786795e+001°)
1.05487257132344e+000	(8.70147527579523e+001dB,-8.99620158927044e+001°)
1.05535846996870e+000	(8.70107527597112e+001dB,-8.99619983963350e+001°)
1.05584459243008e+000	(8.70067527614715e+001dB,-8.99619808895684e+001°)
1.05633093881069e+000	(8.70027527632336e+001dB,-8.99619633781526e+001°)
1.05681750921366e+000	(8.69987527649973e+001dB,-8.99619458563292e+001°)
1.05730430374219e+000	(8.69947527667626e+001dB,-8.99619283298407e+001°)
1.05779132249950e+000	(8.69907527685295e+001dB,-8.99619107910198e+001°)
1.05827856558890e+000	(8.69867527702981e+001dB,-8.99618932475197e+001°)
1.05876603311370e+000	(8.69827527720683e+001dB,-8.99618756955049e+001°)
1.05925372517729e+000	(8.69787527738387e+001dB,-8.99618581349703e+001°)
1.05974164188310e+000	(8.69747527756121e+001dB,-8.99618405639999e+001°)
1.06022978333460e+000	(8.69707527773872e+001dB,-8.99618229864105e+001°)
1.06071814963532e+000	(8.69667527791640e+001dB,-8.99618054021943e+001°)
1.06120674088882e+000	(8.69627527809423e+001dB,-8.99617878075273e+001°)
1.06169555719873e+000	(8.69587527827222e+001dB,-8.99617702081283e+001°)
1.06218459866871e+000	(8.69547527845038e+001dB,-8.99617525982679e+001°)
1.06267386540247e+000	(8.69507527862871e+001dB,-8.99617349798488e+001°)
1.06316335750378e+000	(8.69467527880720e+001dB,-8.99617173547704e+001°)
1.06365307507644e+000	(8.69427527898586e+001dB,-8.99616997211209e+001°)
1.06414301822432e+000	(8.69387527916467e+001dB,-8.99616820788953e+001°)
1.06463318705131e+000	(8.69347527934366e+001dB,-8.99616644299899e+001°)
1.06512358166138e+000	(8.69307527952294e+001dB,-8.99616467724960e+001°)
1.06561420215852e+000	(8.69267527970212e+001dB,-8.99616291045081e+001°)
1.06610504864678e+000	(8.69227527988160e+001dB,-8.99616114298221e+001°)
1.06659612123026e+000	(8.69187528006124e+001dB,-8.99615937484300e+001°)
1.06708742001310e+000	(8.69147528024104e+001dB,-8.99615760565289e+001°)
1.06757894509950e+000	(8.69107528042102e+001dB,-8.99615583560129e+001°)
1.06807069659369e+000	(8.69067528060117e+001dB,-8.99615406525638e+001°)
1.06856267459996e+000	(8.69027528078147e+001dB,-8.99615229366942e+001°)
1.06905487922266e+000	(8.68987528096194e+001dB,-8.99615052121919e+001°)
1.06954731056616e+000	(8.68947528114258e+001dB,-8.99614874790518e+001°)
1.07003996873490e+000	(8.68907528132338e+001dB,-8.99614697372685e+001°)
1.07053285383336e+000	(8.68867528150436e+001dB,-8.99614519925109e+001°)
1.07102596596607e+000	(8.68827528168549e+001dB,-8.99614342353134e+001°)
1.07151930523761e+000	(8.68787528186679e+001dB,-8.99614164713447e+001°)
1.07201287175260e+000	(8.68747528204827e+001dB,-8.99613987005969e+001°)
1.07250666561571e+000	(8.68707528222991e+001dB,-8.99613809192865e+001°)
1.07300068693166e+000	(8.68667528241171e+001dB,-8.99613631292977e+001°)
1.07349493580524e+000	(8.68627528259356e+001dB,-8.99613453362837e+001°)
1.07398941234125e+000	(8.68587528277569e+001dB,-8.99613275270344e+001°)
1.07448411664456e+000	(8.68547528295814e+001dB,-8.99613097128615e+001°)
1.07497904882009e+000	(8.68507528314061e+001dB,-8.99612918899873e+001°)
1.07547420897279e+000	(8.68467528332326e+001dB,-8.99612740640546e+001°)
1.07596959720769e+000	(8.68427528350607e+001dB,-8.99612562237595e+001°)
1.07646521362984e+000	(8.68387528368905e+001dB,-8.99612383803902e+001°)
1.07696105834435e+000	(8.68347528387220e+001dB,-8.99612205245330e+001°)
1.07745713145637e+000	(8.68307528405552e+001dB,-8.99612026580672e+001°)
1.07795343307111e+000	(8.68267528423900e+001dB,-8.99611847903819e+001°)
1.07844996329383e+000	(8.68227528442266e+001dB,-8.99611669101965e+001°)
1.07894672222983e+000	(8.68187528460648e+001dB,-8.99611490231406e+001°)
1.07944370998446e+000	(8.68147528479048e+001dB,-8.99611311273308e+001°)
1.07994092666311e+000	(8.68107528497465e+001dB,-8.99611132246366e+001°)
1.08043837237123e+000	(8.68067528515898e+001dB,-8.99610953131760e+001°)
1.08093604721433e+000	(8.68027528534348e+001dB,-8.99610773948171e+001°)
1.08143395129794e+000	(8.67987528552815e+001dB,-8.99610594620625e+001°)
1.08193208472766e+000	(8.67947528571300e+001dB,-8.99610415261436e+001°)
1.08243044760913e+000	(8.67907528589801e+001dB,-8.99610235814356e+001°)
1.08292904004805e+000	(8.67867528608319e+001dB,-8.99610056279330e+001°)
1.08342786215014e+000	(8.67827528626841e+001dB,-8.99609876693685e+001°)
1.08392691402121e+000	(8.67787528645393e+001dB,-8.99609696945234e+001°)
1.08442619576708e+000	(8.67747528663964e+001dB,-8.99609517202072e+001°)
1.08492570749364e+000	(8.67707528682550e+001dB,-8.99609337296050e+001°)
1.08542544930683e+000	(8.67667528701153e+001dB,-8.99609157376455e+001°)
1.08592542131263e+000	(8.67627528719774e+001dB,-8.99608977349900e+001°)
1.08642562361707e+000	(8.67587528738412e+001dB,-8.99608797234995e+001°)
1.08692605632623e+000	(8.67547528757068e+001dB,-8.99608617031689e+001°)
1.08742671954625e+000	(8.67507528775740e+001dB,-8.99608436721308e+001°)
1.08792761338329e+000	(8.67467528794429e+001dB,-8.99608256359659e+001°)
1.08842873794360e+000	(8.67427528813136e+001dB,-8.99608075909433e+001°)
1.08893009333344e+000	(8.67387528831861e+001dB,-8.99607895426359e+001°)
1.08943167965914e+000	(8.67347528850602e+001dB,-8.99607714798792e+001°)
1.08993349702707e+000	(8.67307528869360e+001dB,-8.99607534082489e+001°)
1.09043554554366e+000	(8.67267528888135e+001dB,-8.99607353314535e+001°)
1.09093782531539e+000	(8.67227528906929e+001dB,-8.99607172476264e+001°)
1.09144033644876e+000	(8.67187528925739e+001dB,-8.99606991493392e+001°)
1.09194307905036e+000	(8.67147528944567e+001dB,-8.99606810458658e+001°)
1.09244605322680e+000	(8.67107528963412e+001dB,-8.99606629371958e+001°)
1.09294925908475e+000	(8.67067528982275e+001dB,-8.99606448177611e+001°)
1.09345269673092e+000	(8.67027529001154e+001dB,-8.99606266875588e+001°)
1.09395636627210e+000	(8.66987529020051e+001dB,-8.99606085521389e+001°)
1.09446026781508e+000	(8.66947529038966e+001dB,-8.99605904096410e+001°)
1.09496440146675e+000	(8.66907529057897e+001dB,-8.99605722545097e+001°)
1.09546876733400e+000	(8.66867529076847e+001dB,-8.99605540922898e+001°)
1.09597336552381e+000	(8.66827529095814e+001dB,-8.99605359248209e+001°)
1.09647819614319e+000	(8.66787529114798e+001dB,-8.99605177483995e+001°)
1.09698325929920e+000	(8.66747529133800e+001dB,-8.99604995611743e+001°)
1.09748855509895e+000	(8.66707529152819e+001dB,-8.99604813631427e+001°)
1.09799408364961e+000	(8.66667529171856e+001dB,-8.99604631598342e+001°)
1.09849984505838e+000	(8.66627529190911e+001dB,-8.99604449530816e+001°)
1.09900583943252e+000	(8.66587529209982e+001dB,-8.99604267299754e+001°)
1.09951206687935e+000	(8.66547529229071e+001dB,-8.99604085015695e+001°)
1.10001852750622e+000	(8.66507529248179e+001dB,-8.99603902660131e+001°)
1.10052522142055e+000	(8.66467529267317e+001dB,-8.99603720196184e+001°)
1.10103214872978e+000	(8.66427529286458e+001dB,-8.99603537642219e+001°)
1.10153930954142e+000	(8.66387529305618e+001dB,-8.99603355034944e+001°)
1.10204670396303e+000	(8.66347529324796e+001dB,-8.99603172374258e+001°)
1.10255433210223e+000	(8.66307529343991e+001dB,-8.99602989531502e+001°)
1.10306219406665e+000	(8.66267529363204e+001dB,-8.99602806690314e+001°)
1.10357028996402e+000	(8.66227529382434e+001dB,-8.99602623740426e+001°)
1.10407861990208e+000	(8.66187529401682e+001dB,-8.99602440700151e+001°)
1.10458718398863e+000	(8.66147529420949e+001dB,-8.99602257587768e+001°)
1.10509598233154e+000	(8.66107529440232e+001dB,-8.99602074366551e+001°)
1.10560501503871e+000	(8.66067529459534e+001dB,-8.99601891054789e+001°)
1.10611428221808e+000	(8.66027529478852e+001dB,-8.99601707670733e+001°)
1.10662378397767e+000	(8.65987529498189e+001dB,-8.99601524214306e+001°)
1.10713352042552e+000	(8.65947529517544e+001dB,-8.99601340685430e+001°)
1.10764349166975e+000	(8.65907529536917e+001dB,-8.99601157047465e+001°)
1.10815369781849e+000	(8.65867529556307e+001dB,-8.99600973336927e+001°)
1.10866413897996e+000	(8.65827529575716e+001dB,-8.99600789517212e+001°)
1.10917481526240e+000	(8.65787529595142e+001dB,-8.99600605624803e+001°)
1.10968572677413e+000	(8.65747529614586e+001dB,-8.99600421677867e+001°)
1.11019687362348e+000	(8.65707529634048e+001dB,-8.99600237603348e+001°)
1.11070825591887e+000	(8.65667529653528e+001dB,-8.99600053455933e+001°)
1.11121987376874e+000	(8.65627529673025e+001dB,-8.99599869235545e+001°)
1.11173172728160e+000	(8.65587529692541e+001dB,-8.99599684923891e+001°)
1.11224381656599e+000	(8.65547529712076e+001dB,-8.99599500539125e+001°)
1.11275614173052e+000	(8.65507529731627e+001dB,-8.99599316062970e+001°)
1.11326870288385e+000	(8.65467529751197e+001dB,-8.99599131513563e+001°)
1.11378150013467e+000	(8.65427529770785e+001dB,-8.99598946854467e+001°)
1.11429453359173e+000	(8.65387529790391e+001dB,-8.99598762103824e+001°)
1.11480780336385e+000	(8.65347529810014e+001dB,-8.99598577297908e+001°)
1.11532130955986e+000	(8.65307529829656e+001dB,-8.99598392382152e+001°)
1.11583505228867e+000	(8.65267529849316e+001dB,-8.99598207429111e+001°)
1.11634903165924e+000	(8.65227529868994e+001dB,-8.99598022347971e+001°)
1.11686324778056e+000	(8.65187529888691e+001dB,-8.99597837156857e+001°)
1.11737770076170e+000	(8.65147529908405e+001dB,-8.99597651928225e+001°)
1.11789239071175e+000	(8.65107529928137e+001dB,-8.99597466589497e+001°)
1.11840731773986e+000	(8.65067529947888e+001dB,-8.99597281158749e+001°)
1.11892248195525e+000	(8.65027529967657e+001dB,-8.99597095672121e+001°)
1.11943788346716e+000	(8.64987529987445e+001dB,-8.99596910111421e+001°)
1.11995352238489e+000	(8.64947530007249e+001dB,-8.99596724404254e+001°)
1.12046939881781e+000	(8.64907530027073e+001dB,-8.99596538659069e+001°)
1.12098551287532e+000	(8.64867530046915e+001dB,-8.99596352803486e+001°)
1.12150186466687e+000	(8.64827530066775e+001dB,-8.99596166891642e+001°)
1.12201845430197e+000	(8.64787530086653e+001dB,-8.99595980869294e+001°)
1.12253528189017e+000	(8.64747530106550e+001dB,-8.99595794772491e+001°)
1.12305234754109e+000	(8.64707530126465e+001dB,-8.99595608565095e+001°)
1.12356965136437e+000	(8.64667530146399e+001dB,-8.99595422319164e+001°)
1.12408719346973e+000	(8.64627530166350e+001dB,-8.99595235926492e+001°)
1.12460497396693e+000	(8.64587530186320e+001dB,-8.99595049495129e+001°)
1.12512299296577e+000	(8.64547530206309e+001dB,-8.99594862988954e+001°)
1.12564125057611e+000	(8.64507530226329e+001dB,-8.99594676353926e+001°)
1.12615974690787e+000	(8.64467530246354e+001dB,-8.99594489661960e+001°)
1.12667848207100e+000	(8.64427530266397e+001dB,-8.99594302877011e+001°)
1.12719745617551e+000	(8.64387530286473e+001dB,-8.99594116016989e+001°)
1.12771666933148e+000	(8.64347530306554e+001dB,-8.99593929045906e+001°)
1.12823612164900e+000	(8.64307530326653e+001dB,-8.99593741999628e+001°)
1.12875581323824e+000	(8.64267530346770e+001dB,-8.99593554878077e+001°)
1.12927574420942e+000	(8.64227530366906e+001dB,-8.99593367627384e+001°)
1.12979591467280e+000	(8.64187530387061e+001dB,-8.99593180337156e+001°)
1.13031632473870e+000	(8.64147530407235e+001dB,-8.99592992953524e+001°)
1.13083697451748e+000	(8.64107530427427e+001dB,-8.99592805494341e+001°)
1.13135786411957e+000	(8.64067530447636e+001dB,-8.99592617887941e+001°)
1.13187899365542e+000	(8.64027530467866e+001dB,-8.99592430241678e+001°)
1.13240036323556e+000	(8.63987530488114e+001dB,-8.99592242501783e+001°)
1.13292197297056e+000	(8.63947530508380e+001dB,-8.99592054721821e+001°)
1.13344382297104e+000	(8.63907530528665e+001dB,-8.99591866812343e+001°)
1.13396591334767e+000	(8.63867530548963e+001dB,-8.99591678791202e+001°)
1.13448824421117e+000	(8.63827530569285e+001dB,-8.99591490747608e+001°)
1.13501081567232e+000	(8.63787530589626e+001dB,-8.99591302520854e+001°)
1.13553362784194e+000	(8.63747530609986e+001dB,-8.99591114307155e+001°)
