Freq.	I(Rl)/-I(R)
1.00000000000000e+002	(7.39567349310486e+000dB,3.55660364467674e+001°)
1.00115195553817e+002	(7.39905413752967e+000dB,3.55348309263734e+001°)
1.00230523807790e+002	(7.40242963122567e+000dB,3.55036370562229e+001°)
1.00345984914784e+002	(7.40579997806142e+000dB,3.54724548689305e+001°)
1.00461579027840e+002	(7.40916518187555e+000dB,3.54412843970435e+001°)
1.00577306300174e+002	(7.41252524651904e+000dB,3.54101256730416e+001°)
1.00693166885180e+002	(7.41588017592334e+000dB,3.53789787293364e+001°)
1.00809160936430e+002	(7.41922997393253e+000dB,3.53478435982714e+001°)
1.00925288607668e+002	(7.42257464446343e+000dB,3.53167203121223e+001°)
1.01041550052821e+002	(7.42591419144986e+000dB,3.52856089030967e+001°)
1.01157945425990e+002	(7.42924861874839e+000dB,3.52545094033333e+001°)
1.01274474881453e+002	(7.43257793032481e+000dB,3.52234218449031e+001°)
1.01391138573668e+002	(7.43590213012244e+000dB,3.51923462598077e+001°)
1.01507936657269e+002	(7.43922122204941e+000dB,3.51612826799806e+001°)
1.01624869287070e+002	(7.44253521006531e+000dB,3.51302311372863e+001°)
1.01741936618061e+002	(7.44584409816164e+000dB,3.50991916635205e+001°)
1.01859138805412e+002	(7.44914789028075e+000dB,3.50681642904096e+001°)
1.01976476004472e+002	(7.45244659040818e+000dB,3.50371490496105e+001°)
1.02093948370768e+002	(7.45574020256025e+000dB,3.50061459727122e+001°)
1.02211556060007e+002	(7.45902873068939e+000dB,3.49751550912328e+001°)
1.02329299228076e+002	(7.46231217879629e+000dB,3.49441764366215e+001°)
1.02447178031038e+002	(7.46559055094122e+000dB,3.49132100402582e+001°)
1.02565192625141e+002	(7.46886385112580e+000dB,3.48822559334524e+001°)
1.02683343166809e+002	(7.47213208337905e+000dB,3.48513141474441e+001°)
1.02801629812648e+002	(7.47539525173223e+000dB,3.48203847134037e+001°)
1.02920052719443e+002	(7.47865336024901e+000dB,3.47894676624311e+001°)
1.03038612044162e+002	(7.48190641296341e+000dB,3.47585630255559e+001°)
1.03157307943951e+002	(7.48515441399017e+000dB,3.47276708337379e+001°)
1.03276140576140e+002	(7.48839736734464e+000dB,3.46967911178664e+001°)
1.03395110098237e+002	(7.49163527715352e+000dB,3.46659239087602e+001°)
1.03514216667935e+002	(7.49486814749197e+000dB,3.46350692371671e+001°)
1.03633460443104e+002	(7.49809598243379e+000dB,3.46042271337650e+001°)
1.03752841581801e+002	(7.50131878614304e+000dB,3.45733976291602e+001°)
1.03872360242262e+002	(7.50453656269399e+000dB,3.45425807538890e+001°)
1.03992016582906e+002	(7.50774931620079e+000dB,3.45117765384160e+001°)
1.04111810762334e+002	(7.51095705084137e+000dB,3.44809850131349e+001°)
1.04231742939331e+002	(7.51415977072703e+000dB,3.44502062083684e+001°)
1.04351813272863e+002	(7.51735748000082e+000dB,3.44194401543678e+001°)
1.04472021922080e+002	(7.52055018283062e+000dB,3.43886868813128e+001°)
1.04592369046317e+002	(7.52373788339050e+000dB,3.43579464193122e+001°)
1.04712854805090e+002	(7.52692058582840e+000dB,3.43272187984027e+001°)
1.04833479358100e+002	(7.53009829436521e+000dB,3.42965040485495e+001°)
1.04954242865233e+002	(7.53327101313901e+000dB,3.42658021996464e+001°)
1.05075145486555e+002	(7.53643874637832e+000dB,3.42351132815146e+001°)
1.05196187382323e+002	(7.53960149830174e+000dB,3.42044373239040e+001°)
1.05317368712972e+002	(7.54275927308688e+000dB,3.41737743564924e+001°)
1.05438689639126e+002	(7.54591207496870e+000dB,3.41431244088851e+001°)
1.05560150321593e+002	(7.54905990818322e+000dB,3.41124875106157e+001°)
1.05681750921366e+002	(7.55220277697937e+000dB,3.40818636911452e+001°)
1.05803491599623e+002	(7.55534068556841e+000dB,3.40512529798624e+001°)
1.05925372517729e+002	(7.55847363822288e+000dB,3.40206554060832e+001°)
1.06047393837234e+002	(7.56160163918287e+000dB,3.39900709990517e+001°)
1.06169555719873e+002	(7.56472469275489e+000dB,3.39594997879389e+001°)
1.06291858327569e+002	(7.56784280314922e+000dB,3.39289418018430e+001°)
1.06414301822432e+002	(7.57095597471624e+000dB,3.38983970697895e+001°)
1.06536886366757e+002	(7.57406421170854e+000dB,3.38678656207314e+001°)
1.06659612123026e+002	(7.57716751841821e+000dB,3.38373474835480e+001°)
1.06782479253910e+002	(7.58026589918786e+000dB,3.38068426870463e+001°)
1.06905487922266e+002	(7.58335935826119e+000dB,3.37763512599597e+001°)
1.07028638291139e+002	(7.58644790003691e+000dB,3.37458732309487e+001°)
1.07151930523761e+002	(7.58953152878246e+000dB,3.37154086286002e+001°)
1.07275364783553e+002	(7.59261024887573e+000dB,3.36849574814281e+001°)
1.07398941234125e+002	(7.59568406461162e+000dB,3.36545198178727e+001°)
1.07522660039273e+002	(7.59875298036319e+000dB,3.36240956663008e+001°)
1.07646521362984e+002	(7.60181700049993e+000dB,3.35936850550058e+001°)
1.07770525369433e+002	(7.60487612936907e+000dB,3.35632880122071e+001°)
1.07894672222983e+002	(7.60793037134372e+000dB,3.35329045660507e+001°)
1.08018962088190e+002	(7.61097973078609e+000dB,3.35025347446089e+001°)
1.08143395129794e+002	(7.61402421208932e+000dB,3.34721785758797e+001°)
1.08267971512730e+002	(7.61706381965252e+000dB,3.34418360877877e+001°)
1.08392691402121e+002	(7.62009855788634e+000dB,3.34115073081829e+001°)
1.08517554963279e+002	(7.62312843116870e+000dB,3.33811922648420e+001°)
1.08642562361707e+002	(7.62615344390620e+000dB,3.33508909854668e+001°)
1.08767713763100e+002	(7.62917360055235e+000dB,3.33206034976857e+001°)
1.08893009333344e+002	(7.63218890550110e+000dB,3.32903298290519e+001°)
1.09018449238513e+002	(7.63519936319808e+000dB,3.32600700070451e+001°)
1.09144033644876e+002	(7.63820497808395e+000dB,3.32298240590705e+001°)
1.09269762718892e+002	(7.64120575460647e+000dB,3.31995920124583e+001°)
1.09395636627210e+002	(7.64420169720085e+000dB,3.31693738944646e+001°)
1.09521655536674e+002	(7.64719281033888e+000dB,3.31391697322712e+001°)
1.09647819614319e+002	(7.65017909849750e+000dB,3.31089795529847e+001°)
1.09774129027372e+002	(7.65316056613285e+000dB,3.30788033836373e+001°)
1.09900583943253e+002	(7.65613721772966e+000dB,3.30486412511865e+001°)
1.10027184529574e+002	(7.65910905776925e+000dB,3.30184931825153e+001°)
1.10153930954142e+002	(7.66207609073519e+000dB,3.29883592044308e+001°)
1.10280823384956e+002	(7.66503832115638e+000dB,3.29582393436661e+001°)
1.10407861990208e+002	(7.66799575351281e+000dB,3.29281336268795e+001°)
1.10535046938285e+002	(7.67094839230940e+000dB,3.28980420806535e+001°)
1.10662378397767e+002	(7.67389624207587e+000dB,3.28679647314960e+001°)
1.10789856537430e+002	(7.67683930735928e+000dB,3.28379016058400e+001°)
1.10917481526241e+002	(7.67977759264923e+000dB,3.28078527300426e+001°)
1.11045253533365e+002	(7.68271110249470e+000dB,3.27778181303863e+001°)
1.11173172728160e+002	(7.68563984144804e+000dB,3.27477978330781e+001°)
1.11301239280180e+002	(7.68856381405157e+000dB,3.27177918642496e+001°)
1.11429453359174e+002	(7.69148302484324e+000dB,3.26878002499573e+001°)
1.11557815135086e+002	(7.69439747842395e+000dB,3.26578230161820e+001°)
1.11686324778057e+002	(7.69730717932693e+000dB,3.26278601888291e+001°)
1.11814982458423e+002	(7.70021213214719e+000dB,3.25979117937289e+001°)
1.11943788346716e+002	(7.70311234143511e+000dB,3.25679778566354e+001°)
1.12072742613665e+002	(7.70600781178941e+000dB,3.25380584032275e+001°)
1.12201845430197e+002	(7.70889854782477e+000dB,3.25081534591085e+001°)
1.12331096967433e+002	(7.71178455407862e+000dB,3.24782630498058e+001°)
1.12460497396693e+002	(7.71466583522740e+000dB,3.24483872007711e+001°)
1.12590046889495e+002	(7.71754239582520e+000dB,3.24185259373805e+001°)
1.12719745617552e+002	(7.72041424052016e+000dB,3.23886792849341e+001°)
1.12849593752777e+002	(7.72328137389895e+000dB,3.23588472686563e+001°)
1.12979591467281e+002	(7.72614380059769e+000dB,3.23290299136957e+001°)
1.13109738933371e+002	(7.72900152526371e+000dB,3.22992272451250e+001°)
1.13240036323557e+002	(7.73185455251819e+000dB,3.22694392879405e+001°)
1.13370483810542e+002	(7.73470288701686e+000dB,3.22396660670629e+001°)
1.13501081567232e+002	(7.73754653338135e+000dB,3.22099076073371e+001°)
1.13631829766732e+002	(7.74038549629190e+000dB,3.21801639335314e+001°)
1.13762728582344e+002	(7.74321978038674e+000dB,3.21504350703386e+001°)
1.13893778187572e+002	(7.74604939033024e+000dB,3.21207210423748e+001°)
1.14024978756118e+002	(7.74887433083655e+000dB,3.20910218741802e+001°)
1.14156330461885e+002	(7.75169460650152e+000dB,3.20613375902193e+001°)
1.14287833478978e+002	(7.75451022207509e+000dB,3.20316682148796e+001°)
1.14419487981699e+002	(7.75732118221870e+000dB,3.20020137724728e+001°)
1.14551294144554e+002	(7.76012749161572e+000dB,3.19723742872344e+001°)
1.14683252142249e+002	(7.76292915495926e+000dB,3.19427497833233e+001°)
1.14815362149689e+002	(7.76572617696909e+000dB,3.19131402848224e+001°)
1.14947624341984e+002	(7.76851856235433e+000dB,3.18835458157381e+001°)
1.15080038894444e+002	(7.77130631577516e+000dB,3.18539664000003e+001°)
1.15212605982582e+002	(7.77408944202245e+000dB,3.18244020614632e+001°)
1.15345325782110e+002	(7.77686794574966e+000dB,3.17948528239033e+001°)
1.15478198468947e+002	(7.77964183173343e+000dB,3.17653187110221e+001°)
1.15611224219211e+002	(7.78241110469837e+000dB,3.17357997464436e+001°)
1.15744403209225e+002	(7.78517576935413e+000dB,3.17062959537160e+001°)
1.15877735615514e+002	(7.78793583045030e+000dB,3.16768073563106e+001°)
1.16011221614806e+002	(7.79069129275087e+000dB,3.16473339776223e+001°)
1.16144861384035e+002	(7.79344216099002e+000dB,3.16178758409695e+001°)
1.16278655100336e+002	(7.79618843993374e+000dB,3.15884329695938e+001°)
1.16412602941050e+002	(7.79893013434138e+000dB,3.15590053866609e+001°)
1.16546705083721e+002	(7.80166724898402e+000dB,3.15295931152592e+001°)
1.16680961706097e+002	(7.80439978860005e+000dB,3.15001961784010e+001°)
1.16815372986133e+002	(7.80712775799980e+000dB,3.14708145990216e+001°)
1.16949939101988e+002	(7.80985116195343e+000dB,3.14414483999801e+001°)
1.17084660232025e+002	(7.81257000523964e+000dB,3.14120976040585e+001°)
1.17219536554814e+002	(7.81528429263894e+000dB,3.13827622339624e+001°)
1.17354568249130e+002	(7.81799402896353e+000dB,3.13534423123210e+001°)
1.17489755493954e+002	(7.82069921901344e+000dB,3.13241378616865e+001°)
1.17625098468473e+002	(7.82339986756349e+000dB,3.12948489045343e+001°)
1.17760597352082e+002	(7.82609597943655e+000dB,3.12655754632635e+001°)
1.17896252324380e+002	(7.82878755945379e+000dB,3.12363175601961e+001°)
1.18032063565174e+002	(7.83147461240223e+000dB,3.12070752175779e+001°)
1.18168031254479e+002	(7.83415714314626e+000dB,3.11778484575778e+001°)
1.18304155572518e+002	(7.83683515645295e+000dB,3.11486373022876e+001°)
1.18440436699718e+002	(7.83950865718966e+000dB,3.11194417737226e+001°)
1.18576874816717e+002	(7.84217765016844e+000dB,3.10902618938220e+001°)
1.18713470104361e+002	(7.84484214024457e+000dB,3.10610976844473e+001°)
1.18850222743703e+002	(7.84750213224727e+000dB,3.10319491673839e+001°)
1.18987132916005e+002	(7.85015763104131e+000dB,3.10028163643403e+001°)
1.19124200802739e+002	(7.85280864142056e+000dB,3.09736992969481e+001°)
1.19261426585583e+002	(7.85545516829379e+000dB,3.09445979867627e+001°)
1.19398810446429e+002	(7.85809721650948e+000dB,3.09155124552622e+001°)
1.19536352567373e+002	(7.86073479089298e+000dB,3.08864427238482e+001°)
1.19674053130726e+002	(7.86336789633204e+000dB,3.08573888138455e+001°)
1.19811912319005e+002	(7.86599653770853e+000dB,3.08283507465025e+001°)
1.19949930314939e+002	(7.86862071988443e+000dB,3.07993285429903e+001°)
1.20088107301468e+002	(7.87124044773269e+000dB,3.07703222244039e+001°)
1.20226443461743e+002	(7.87385572612380e+000dB,3.07413318117612e+001°)
1.20364938979123e+002	(7.87646655996261e+000dB,3.07123573260035e+001°)
1.20503594037181e+002	(7.87907295412482e+000dB,3.06833987879953e+001°)
1.20642408819701e+002	(7.88167491350043e+000dB,3.06544562185248e+001°)
1.20781383510679e+002	(7.88427244296149e+000dB,3.06255296383030e+001°)
1.20920518294322e+002	(7.88686554746680e+000dB,3.05966190679645e+001°)
1.21059813355050e+002	(7.88945423186943e+000dB,3.05677245280674e+001°)
1.21199268877494e+002	(7.89203850107601e+000dB,3.05388460390926e+001°)
1.21338885046499e+002	(7.89461836002887e+000dB,3.05099836214453e+001°)
1.21478662047124e+002	(7.89719381360475e+000dB,3.04811372954527e+001°)
1.21618600064638e+002	(7.89976486672643e+000dB,3.04523070813666e+001°)
1.21758699284527e+002	(7.90233152434935e+000dB,3.04234929993621e+001°)
1.21898959892488e+002	(7.90489379134921e+000dB,3.03946950695367e+001°)
1.22039382074433e+002	(7.90745167266357e+000dB,3.03659133119122e+001°)
1.22179966016489e+002	(7.91000517325459e+000dB,3.03371477464340e+001°)
1.22320711904995e+002	(7.91255429801415e+000dB,3.03083983929702e+001°)
1.22461619926506e+002	(7.91509905188203e+000dB,3.02796652713128e+001°)
1.22602690267794e+002	(7.91763943983823e+000dB,3.02509484011774e+001°)
1.22743923115842e+002	(7.92017546677831e+000dB,3.02222478022029e+001°)
1.22885318657852e+002	(7.92270713766168e+000dB,3.01935634939515e+001°)
1.23026877081240e+002	(7.92523445746704e+000dB,3.01648954959096e+001°)
1.23168598573637e+002	(7.92775743109272e+000dB,3.01362438274866e+001°)
1.23310483322892e+002	(7.93027606354184e+000dB,3.01076085080158e+001°)
1.23452531517070e+002	(7.93279035972880e+000dB,3.00789895567539e+001°)
1.23594743344452e+002	(7.93530032465968e+000dB,3.00503869928810e+001°)
1.23737118993537e+002	(7.93780596326845e+000dB,3.00218008355018e+001°)
1.23879658653038e+002	(7.94030728052299e+000dB,2.99932311036434e+001°)
1.24022362511890e+002	(7.94280428141137e+000dB,2.99646778162575e+001°)
1.24165230759243e+002	(7.94529697089755e+000dB,2.99361409922194e+001°)
1.24308263584464e+002	(7.94778535393332e+000dB,2.99076206503277e+001°)
1.24451461177140e+002	(7.95026943553169e+000dB,2.98791168093054e+001°)
1.24594823727076e+002	(7.95274922067319e+000dB,2.98506294877986e+001°)
1.24738351424296e+002	(7.95522471429882e+000dB,2.98221587043780e+001°)
1.24882044459041e+002	(7.95769592145220e+000dB,2.97937044775375e+001°)
1.25025903021774e+002	(7.96016284707334e+000dB,2.97652668256952e+001°)
1.25169927303174e+002	(7.96262549617255e+000dB,2.97368457671932e+001°)
1.25314117494143e+002	(7.96508387376699e+000dB,2.97084413202974e+001°)
1.25458473785801e+002	(7.96753798480531e+000dB,2.96800535031975e+001°)
1.25602996369489e+002	(7.96998783433506e+000dB,2.96516823340077e+001°)
1.25747685436768e+002	(7.97243342732127e+000dB,2.96233278307658e+001°)
1.25892541179418e+002	(7.97487476879479e+000dB,2.95949900114337e+001°)
1.26037563789444e+002	(7.97731186375876e+000dB,2.95666688938979e+001°)
1.26182753459069e+002	(7.97974471718099e+000dB,2.95383644959683e+001°)
1.26328110380737e+002	(7.98217333412417e+000dB,2.95100768353794e+001°)
1.26473634747117e+002	(7.98459771959565e+000dB,2.94818059297901e+001°)
1.26619326751096e+002	(7.98701787859010e+000dB,2.94535517967832e+001°)
1.26765186585786e+002	(7.98943381614504e+000dB,2.94253144538659e+001°)
1.26911214444521e+002	(7.99184553725244e+000dB,2.93970939184696e+001°)
1.27057410520856e+002	(7.99425304697033e+000dB,2.93688902079503e+001°)
1.27203775008571e+002	(7.99665635030373e+000dB,2.93407033395885e+001°)
1.27350308101668e+002	(7.99905545227836e+000dB,2.93125333305887e+001°)
1.27497009994373e+002	(8.00145035792107e+000dB,2.92843801980800e+001°)
1.27643880881136e+002	(8.00384107228449e+000dB,2.92562439591164e+001°)
1.27790920956630e+002	(8.00622760038951e+000dB,2.92281246306760e+001°)
1.27938130415754e+002	(8.00860994726855e+000dB,2.92000222296617e+001°)
1.28085509453630e+002	(8.01098811795210e+000dB,2.91719367729011e+001°)
1.28233058265604e+002	(8.01336211749286e+000dB,2.91438682771464e+001°)
1.28380777047249e+002	(8.01573195092771e+000dB,2.91158167590745e+001°)
1.28528665994363e+002	(8.01809762329516e+000dB,2.90877822352871e+001°)
1.28676725302969e+002	(8.02045913963522e+000dB,2.90597647223109e+001°)
1.28824955169315e+002	(8.02281650501303e+000dB,2.90317642365971e+001°)
1.28973355789877e+002	(8.02516972448047e+000dB,2.90037807945225e+001°)
1.29121927361355e+002	(8.02751880305146e+000dB,2.89758144123876e+001°)
1.29270670080678e+002	(8.02986374581197e+000dB,2.89478651064195e+001°)
1.29419584145000e+002	(8.03220455780805e+000dB,2.89199328927690e+001°)
1.29568669751704e+002	(8.03454124409437e+000dB,2.88920177875128e+001°)
1.29717927098397e+002	(8.03687380970881e+000dB,2.88641198066525e+001°)
1.29867356382918e+002	(8.03920225973987e+000dB,2.88362389661148e+001°)
1.30016957803331e+002	(8.04152659923893e+000dB,2.88083752817517e+001°)
1.30166731557928e+002	(8.04384683326279e+000dB,2.87805287693407e+001°)
1.30316677845232e+002	(8.04616296686699e+000dB,2.87526994445846e+001°)
1.30466796863991e+002	(8.04847500514815e+000dB,2.87248873231112e+001°)
1.30617088813186e+002	(8.05078295313164e+000dB,2.86970924204743e+001°)
1.30767553892024e+002	(8.05308681590084e+000dB,2.86693147521530e+001°)
1.30918192299943e+002	(8.05538659852220e+000dB,2.86415543335517e+001°)
1.31069004236610e+002	(8.05768230608770e+000dB,2.86138111800011e+001°)
1.31219989901922e+002	(8.05997394364575e+000dB,2.85860853067567e+001°)
1.31371149496008e+002	(8.06226151627495e+000dB,2.85583767290005e+001°)
1.31522483219226e+002	(8.06454502905227e+000dB,2.85306854618398e+001°)
1.31673991272164e+002	(8.06682448705223e+000dB,2.85030115203077e+001°)
1.31825673855643e+002	(8.06909989535825e+000dB,2.84753549193641e+001°)
1.31977531170714e+002	(8.07137125903743e+000dB,2.84477156738932e+001°)
1.32129563418659e+002	(8.07363858315835e+000dB,2.84200937987068e+001°)
1.32281770800995e+002	(8.07590187284560e+000dB,2.83924893085421e+001°)
1.32434153519468e+002	(8.07816113313671e+000dB,2.83649022180623e+001°)
1.32586711776058e+002	(8.08041636912414e+000dB,2.83373325418570e+001°)
1.32739445772976e+002	(8.08266758591696e+000dB,2.83097802944421e+001°)
1.32892355712668e+002	(8.08491478854692e+000dB,2.82822454902596e+001°)
1.33045441797811e+002	(8.08715798214792e+000dB,2.82547281436783e+001°)
1.33198704231318e+002	(8.08939717180624e+000dB,2.82272282689929e+001°)
1.33352143216334e+002	(8.09163236257780e+000dB,2.81997458804249e+001°)
1.33505758956239e+002	(8.09386355956276e+000dB,2.81722809921224e+001°)
1.33659551654646e+002	(8.09609076786030e+000dB,2.81448336181600e+001°)
1.33813521515404e+002	(8.09831399254994e+000dB,2.81174037725390e+001°)
1.33967668742596e+002	(8.10053323873389e+000dB,2.80899914691875e+001°)
1.34121993540539e+002	(8.10274851149265e+000dB,2.80625967219604e+001°)
1.34276496113788e+002	(8.10495981591549e+000dB,2.80352195446395e+001°)
1.34431176667133e+002	(8.10716715710600e+000dB,2.80078599509335e+001°)
1.34586035405597e+002	(8.10937054016822e+000dB,2.79805179544783e+001°)
1.34741072534443e+002	(8.11156997016937e+000dB,2.79531935688366e+001°)
1.34896288259167e+002	(8.11376545220661e+000dB,2.79258868074988e+001°)
1.35051682785506e+002	(8.11595699140059e+000dB,2.78985976838814e+001°)
1.35207256319430e+002	(8.11814459283266e+000dB,2.78713262113297e+001°)
1.35363009067148e+002	(8.12032826159298e+000dB,2.78440724031151e+001°)
1.35518941235106e+002	(8.12250800279904e+000dB,2.78168362724372e+001°)
1.35675053029988e+002	(8.12468382152008e+000dB,2.77896178324227e+001°)
1.35831344658718e+002	(8.12685572287560e+000dB,2.77624170961258e+001°)
1.35987816328454e+002	(8.12902371194781e+000dB,2.77352340765288e+001°)
1.36144468246597e+002	(8.13118779388002e+000dB,2.77080687865415e+001°)
1.36301300620785e+002	(8.13334797370224e+000dB,2.76809212390011e+001°)
1.36458313658895e+002	(8.13550425655935e+000dB,2.76537914466734e+001°)
1.36615507569043e+002	(8.13765664754393e+000dB,2.76266794222514e+001°)
1.36772882559587e+002	(8.13980515176257e+000dB,2.75995851783566e+001°)
1.36930438839123e+002	(8.14194977430455e+000dB,2.75725087275383e+001°)
1.37088176616488e+002	(8.14409052027227e+000dB,2.75454500822742e+001°)
1.37246096100758e+002	(8.14622739475518e+000dB,2.75184092549700e+001°)
1.37404197501254e+002	(8.14836040287884e+000dB,2.74913862579600e+001°)
1.37562481027533e+002	(8.15048954973612e+000dB,2.74643811035066e+001°)
1.37720946889397e+002	(8.15261484041677e+000dB,2.74373938038005e+001°)
1.37879595296888e+002	(8.15473628003845e+000dB,2.74104243709615e+001°)
1.38038426460291e+002	(8.15685387369569e+000dB,2.73834728170377e+001°)
