Freq.	-I(Rl)/I(I1)
1.00000000000000e+002	(-7.98174807387011e+000dB,-9.79620703066492e+001°)
1.00115195553817e+002	(-7.97194011529447e+000dB,-9.79711244752885e+001°)
1.00230523807790e+002	(-7.96213259089902e+000dB,-9.79801886727037e+001°)
1.00345984914784e+002	(-7.95232550164628e+000dB,-9.79892629090951e+001°)
1.00461579027840e+002	(-7.94251884850039e+000dB,-9.79983471946701e+001°)
1.00577306300174e+002	(-7.93271263242802e+000dB,-9.80074415396436e+001°)
1.00693166885180e+002	(-7.92290685439751e+000dB,-9.80165459542375e+001°)
1.00809160936430e+002	(-7.91310151537926e+000dB,-9.80256604486811e+001°)
1.00925288607668e+002	(-7.90329661634602e+000dB,-9.80347850332109e+001°)
1.01041550052821e+002	(-7.89349215827218e+000dB,-9.80439197180707e+001°)
1.01157945425990e+002	(-7.88368814213476e+000dB,-9.80530645135115e+001°)
1.01274474881453e+002	(-7.87388456891265e+000dB,-9.80622194297914e+001°)
1.01391138573668e+002	(-7.86408143958618e+000dB,-9.80713844771759e+001°)
1.01507936657269e+002	(-7.85427875513897e+000dB,-9.80805596659378e+001°)
1.01624869287070e+002	(-7.84447651655546e+000dB,-9.80897450063568e+001°)
1.01741936618061e+002	(-7.83467472482327e+000dB,-9.80989405087200e+001°)
1.01859138805412e+002	(-7.82487338093104e+000dB,-9.81081461833218e+001°)
1.01976476004472e+002	(-7.81507248587057e+000dB,-9.81173620404634e+001°)
1.02093948370768e+002	(-7.80527204063527e+000dB,-9.81265880904538e+001°)
1.02211556060007e+002	(-7.79547204622029e+000dB,-9.81358243436085e+001°)
1.02329299228076e+002	(-7.78567250362384e+000dB,-9.81450708102506e+001°)
1.02447178031038e+002	(-7.77587341384502e+000dB,-9.81543275007104e+001°)
1.02565192625141e+002	(-7.76607477788605e+000dB,-9.81635944253249e+001°)
1.02683343166809e+002	(-7.75627659675104e+000dB,-9.81728715944389e+001°)
1.02801629812648e+002	(-7.74647887144571e+000dB,-9.81821590184037e+001°)
1.02920052719443e+002	(-7.73668160297879e+000dB,-9.81914567075783e+001°)
1.03038612044162e+002	(-7.72688479235998e+000dB,-9.82007646723284e+001°)
1.03157307943951e+002	(-7.71708844060248e+000dB,-9.82100829230270e+001°)
1.03276140576140e+002	(-7.70729254872038e+000dB,-9.82194114700542e+001°)
1.03395110098237e+002	(-7.69749711773100e+000dB,-9.82287503237973e+001°)
1.03514216667935e+002	(-7.68770214865309e+000dB,-9.82380994946505e+001°)
1.03633460443104e+002	(-7.67790764250741e+000dB,-9.82474589930153e+001°)
1.03752841581801e+002	(-7.66811360031755e+000dB,-9.82568288293001e+001°)
1.03872360242262e+002	(-7.65832002310904e+000dB,-9.82662090139204e+001°)
1.03992016582906e+002	(-7.64852691190938e+000dB,-9.82755995572990e+001°)
1.04111810762334e+002	(-7.63873426774827e+000dB,-9.82850004698655e+001°)
1.04231742939331e+002	(-7.62894209165737e+000dB,-9.82944117620566e+001°)
1.04351813272863e+002	(-7.61915038467144e+000dB,-9.83038334443162e+001°)
1.04472021922080e+002	(-7.60935914782620e+000dB,-9.83132655270951e+001°)
1.04592369046317e+002	(-7.59956838216054e+000dB,-9.83227080208511e+001°)
1.04712854805090e+002	(-7.58977808871468e+000dB,-9.83321609360491e+001°)
1.04833479358100e+002	(-7.57998826853189e+000dB,-9.83416242831610e+001°)
1.04954242865233e+002	(-7.57019892265715e+000dB,-9.83510980726658e+001°)
1.05075145486555e+002	(-7.56041005213771e+000dB,-9.83605823150493e+001°)
1.05196187382323e+002	(-7.55062165802299e+000dB,-9.83700770208044e+001°)
1.05317368712972e+002	(-7.54083374136472e+000dB,-9.83795822004311e+001°)
1.05438689639126e+002	(-7.53104630321670e+000dB,-9.83890978644361e+001°)
1.05560150321593e+002	(-7.52125934463561e+000dB,-9.83986240233334e+001°)
1.05681750921366e+002	(-7.51147286667916e+000dB,-9.84081606876436e+001°)
1.05803491599623e+002	(-7.50168687040832e+000dB,-9.84177078678945e+001°)
1.05925372517729e+002	(-7.49190135688572e+000dB,-9.84272655746209e+001°)
1.06047393837234e+002	(-7.48211632717619e+000dB,-9.84368338183642e+001°)
1.06169555719873e+002	(-7.47233178234768e+000dB,-9.84464126096730e+001°)
1.06291858327569e+002	(-7.46254772346903e+000dB,-9.84560019591028e+001°)
1.06414301822432e+002	(-7.45276415161259e+000dB,-9.84656018772160e+001°)
1.06536886366757e+002	(-7.44298106785200e+000dB,-9.84752123745817e+001°)
1.06659612123026e+002	(-7.43319847326388e+000dB,-9.84848334617761e+001°)
1.06782479253910e+002	(-7.42341636892693e+000dB,-9.84944651493823e+001°)
1.06905487922266e+002	(-7.41363475592166e+000dB,-9.85041074479901e+001°)
1.07028638291139e+002	(-7.40385363533085e+000dB,-9.85137603681963e+001°)
1.07151930523761e+002	(-7.39407300824077e+000dB,-9.85234239206044e+001°)
1.07275364783553e+002	(-7.38429287573825e+000dB,-9.85330981158251e+001°)
1.07398941234125e+002	(-7.37451323891386e+000dB,-9.85427829644755e+001°)
1.07522660039273e+002	(-7.36473409885953e+000dB,-9.85524784771797e+001°)
1.07646521362984e+002	(-7.35495545666987e+000dB,-9.85621846645687e+001°)
1.07770525369433e+002	(-7.34517731344177e+000dB,-9.85719015372803e+001°)
1.07894672222983e+002	(-7.33539967027412e+000dB,-9.85816291059589e+001°)
1.08018962088190e+002	(-7.32562252826859e+000dB,-9.85913673812559e+001°)
1.08143395129794e+002	(-7.31584588852886e+000dB,-9.86011163738295e+001°)
1.08267971512730e+002	(-7.30606975216115e+000dB,-9.86108760943444e+001°)
1.08392691402121e+002	(-7.29629412027342e+000dB,-9.86206465534723e+001°)
1.08517554963279e+002	(-7.28651899397689e+000dB,-9.86304277618917e+001°)
1.08642562361707e+002	(-7.27674437438415e+000dB,-9.86402197302876e+001°)
1.08767713763100e+002	(-7.26697026261086e+000dB,-9.86500224693519e+001°)
1.08893009333344e+002	(-7.25719665977456e+000dB,-9.86598359897831e+001°)
1.09018449238513e+002	(-7.24742356699548e+000dB,-9.86696603022866e+001°)
1.09144033644876e+002	(-7.23765098539572e+000dB,-9.86794954175744e+001°)
1.09269762718892e+002	(-7.22787891610031e+000dB,-9.86893413463651e+001°)
1.09395636627210e+002	(-7.21810736023610e+000dB,-9.86991980993841e+001°)
1.09521655536674e+002	(-7.20833631893251e+000dB,-9.87090656873635e+001°)
1.09647819614319e+002	(-7.19856579332164e+000dB,-9.87189441210418e+001°)
1.09774129027372e+002	(-7.18879578453742e+000dB,-9.87288334111646e+001°)
1.09900583943253e+002	(-7.17902629371641e+000dB,-9.87387335684836e+001°)
1.10027184529574e+002	(-7.16925732199751e+000dB,-9.87486446037577e+001°)
1.10153930954142e+002	(-7.15948887052232e+000dB,-9.87585665277519e+001°)
1.10280823384956e+002	(-7.14972094043437e+000dB,-9.87684993512381e+001°)
1.10407861990208e+002	(-7.13995353287925e+000dB,-9.87784430849947e+001°)
1.10535046938285e+002	(-7.13018664900617e+000dB,-9.87883977398069e+001°)
1.10662378397767e+002	(-7.12042028996566e+000dB,-9.87983633264661e+001°)
1.10789856537430e+002	(-7.11065445691085e+000dB,-9.88083398557705e+001°)
1.10917481526241e+002	(-7.10088915099780e+000dB,-9.88183273385249e+001°)
1.11045253533365e+002	(-7.09112437338402e+000dB,-9.88283257855404e+001°)
1.11173172728160e+002	(-7.08136012523067e+000dB,-9.88383352076349e+001°)
1.11301239280180e+002	(-7.07159640769986e+000dB,-9.88483556156327e+001°)
1.11429453359174e+002	(-7.06183322195807e+000dB,-9.88583870203645e+001°)
1.11557815135086e+002	(-7.05207056917216e+000dB,-9.88684294326678e+001°)
1.11686324778057e+002	(-7.04230845051243e+000dB,-9.88784828633863e+001°)
1.11814982458423e+002	(-7.03254686715184e+000dB,-9.88885473233702e+001°)
1.11943788346716e+002	(-7.02278582026516e+000dB,-9.88986228234764e+001°)
1.12072742613665e+002	(-7.01302531103029e+000dB,-9.89087093745679e+001°)
1.12201845430197e+002	(-7.00326534062693e+000dB,-9.89188069875145e+001°)
1.12331096967433e+002	(-6.99350591023754e+000dB,-9.89289156731921e+001°)
1.12460497396693e+002	(-6.98374702104712e+000dB,-9.89390354424833e+001°)
1.12590046889495e+002	(-6.97398867424314e+000dB,-9.89491663062770e+001°)
1.12719745617552e+002	(-6.96423087101512e+000dB,-9.89593082754684e+001°)
1.12849593752777e+002	(-6.95447361255572e+000dB,-9.89694613609591e+001°)
1.12979591467281e+002	(-6.94471690005938e+000dB,-9.89796255736572e+001°)
1.13109738933371e+002	(-6.93496073472357e+000dB,-9.89898009244771e+001°)
1.13240036323557e+002	(-6.92520511774801e+000dB,-9.89999874243395e+001°)
1.13370483810542e+002	(-6.91545005033509e+000dB,-9.90101850841714e+001°)
1.13501081567232e+002	(-6.90569553368922e+000dB,-9.90203939149063e+001°)
1.13631829766732e+002	(-6.89594156901782e+000dB,-9.90306139274837e+001°)
1.13762728582344e+002	(-6.88618815753075e+000dB,-9.90408451328497e+001°)
1.13893778187572e+002	(-6.87643530044034e+000dB,-9.90510875419566e+001°)
1.14024978756118e+002	(-6.86668299896092e+000dB,-9.90613411657629e+001°)
1.14156330461885e+002	(-6.85693125431043e+000dB,-9.90716060152334e+001°)
1.14287833478978e+002	(-6.84718006770801e+000dB,-9.90818821013390e+001°)
1.14419487981699e+002	(-6.83742944037642e+000dB,-9.90921694350572e+001°)
1.14551294144554e+002	(-6.82767937354050e+000dB,-9.91024680273712e+001°)
1.14683252142249e+002	(-6.81792986842762e+000dB,-9.91127778892710e+001°)
1.14815362149689e+002	(-6.80818092626758e+000dB,-9.91230990317523e+001°)
1.14947624341984e+002	(-6.79843254829328e+000dB,-9.91334314658172e+001°)
1.15080038894444e+002	(-6.78868473573937e+000dB,-9.91437752024739e+001°)
1.15212605982582e+002	(-6.77893748984379e+000dB,-9.91541302527368e+001°)
1.15345325782110e+002	(-6.76919081184677e+000dB,-9.91644966276265e+001°)
1.15478198468947e+002	(-6.75944470299044e+000dB,-9.91748743381696e+001°)
1.15611224219211e+002	(-6.74969916452060e+000dB,-9.91852633953988e+001°)
1.15744403209225e+002	(-6.73995419768526e+000dB,-9.91956638103531e+001°)
1.15877735615514e+002	(-6.73020980373457e+000dB,-9.92060755940773e+001°)
1.16011221614806e+002	(-6.72046598392155e+000dB,-9.92164987576225e+001°)
1.16144861384035e+002	(-6.71072273950217e+000dB,-9.92269333120458e+001°)
1.16278655100336e+002	(-6.70098007173444e+000dB,-9.92373792684103e+001°)
1.16412602941050e+002	(-6.69123798187932e+000dB,-9.92478366377851e+001°)
1.16546705083721e+002	(-6.68149647119998e+000dB,-9.92583054312454e+001°)
1.16680961706097e+002	(-6.67175554096268e+000dB,-9.92687856598725e+001°)
1.16815372986133e+002	(-6.66201519243575e+000dB,-9.92792773347534e+001°)
1.16949939101988e+002	(-6.65227542689122e+000dB,-9.92897804669813e+001°)
1.17084660232025e+002	(-6.64253624560219e+000dB,-9.93002950676553e+001°)
1.17219536554814e+002	(-6.63279764984568e+000dB,-9.93108211478804e+001°)
1.17354568249130e+002	(-6.62305964090048e+000dB,-9.93213587187676e+001°)
1.17489755493954e+002	(-6.61332222004848e+000dB,-9.93319077914338e+001°)
1.17625098468473e+002	(-6.60358538857421e+000dB,-9.93424683770018e+001°)
1.17760597352082e+002	(-6.59384914776460e+000dB,-9.93530404866002e+001°)
1.17896252324380e+002	(-6.58411349890954e+000dB,-9.93636241313637e+001°)
1.18032063565174e+002	(-6.57437844330120e+000dB,-9.93742193224325e+001°)
1.18168031254479e+002	(-6.56464398223475e+000dB,-9.93848260709530e+001°)
1.18304155572518e+002	(-6.55491011700754e+000dB,-9.93954443880773e+001°)
1.18440436699718e+002	(-6.54517684892043e+000dB,-9.94060742849631e+001°)
1.18576874816717e+002	(-6.53544417927646e+000dB,-9.94167157727743e+001°)
1.18713470104361e+002	(-6.52571210938093e+000dB,-9.94273688626802e+001°)
1.18850222743703e+002	(-6.51598064054236e+000dB,-9.94380335658562e+001°)
1.18987132916005e+002	(-6.50624977407223e+000dB,-9.94487098934831e+001°)
1.19124200802739e+002	(-6.49651951128374e+000dB,-9.94593978567477e+001°)
1.19261426585583e+002	(-6.48678985349383e+000dB,-9.94700974668424e+001°)
1.19398810446429e+002	(-6.47706080202127e+000dB,-9.94808087349655e+001°)
1.19536352567373e+002	(-6.46733235818821e+000dB,-9.94915316723206e+001°)
1.19674053130726e+002	(-6.45760452331936e+000dB,-9.95022662901173e+001°)
1.19811912319005e+002	(-6.44787729874157e+000dB,-9.95130125995709e+001°)
1.19949930314939e+002	(-6.43815068578526e+000dB,-9.95237706119019e+001°)
1.20088107301468e+002	(-6.42842468578310e+000dB,-9.95345403383370e+001°)
1.20226443461743e+002	(-6.41869930007045e+000dB,-9.95453217901081e+001°)
1.20364938979123e+002	(-6.40897452998590e+000dB,-9.95561149784528e+001°)
1.20503594037181e+002	(-6.39925037686994e+000dB,-9.95669199146144e+001°)
1.20642408819701e+002	(-6.38952684206643e+000dB,-9.95777366098416e+001°)
1.20781383510679e+002	(-6.37980392692203e+000dB,-9.95885650753887e+001°)
1.20920518294322e+002	(-6.37008163278558e+000dB,-9.95994053225155e+001°)
1.21059813355050e+002	(-6.36035996100967e+000dB,-9.96102573624874e+001°)
1.21199268877494e+002	(-6.35063891294852e+000dB,-9.96211212065752e+001°)
1.21338885046499e+002	(-6.34091848995960e+000dB,-9.96319968660551e+001°)
1.21478662047124e+002	(-6.33119869340363e+000dB,-9.96428843522091e+001°)
1.21618600064638e+002	(-6.32147952464325e+000dB,-9.96537836763242e+001°)
1.21758699284527e+002	(-6.31176098504445e+000dB,-9.96646948496931e+001°)
1.21898959892488e+002	(-6.30204307597603e+000dB,-9.96756178836139e+001°)
1.22039382074433e+002	(-6.29232579880916e+000dB,-9.96865527893899e+001°)
1.22179966016489e+002	(-6.28260915491812e+000dB,-9.96974995783300e+001°)
1.22320711904995e+002	(-6.27289314568013e+000dB,-9.97084582617484e+001°)
1.22461619926506e+002	(-6.26317777247472e+000dB,-9.97194288509644e+001°)
1.22602690267794e+002	(-6.25346303668471e+000dB,-9.97304113573030e+001°)
1.22743923115842e+002	(-6.24374893969584e+000dB,-9.97414057920943e+001°)
1.22885318657852e+002	(-6.23403548289596e+000dB,-9.97524121666736e+001°)
1.23026877081240e+002	(-6.22432266767642e+000dB,-9.97634304923816e+001°)
1.23168598573637e+002	(-6.21461049543103e+000dB,-9.97744607805644e+001°)
1.23310483322892e+002	(-6.20489896755680e+000dB,-9.97855030425729e+001°)
1.23452531517070e+002	(-6.19518808545315e+000dB,-9.97965572897635e+001°)
1.23594743344452e+002	(-6.18547785052276e+000dB,-9.98076235334979e+001°)
1.23737118993537e+002	(-6.17576826417072e+000dB,-9.98187017851428e+001°)
1.23879658653038e+002	(-6.16605932780532e+000dB,-9.98297920560700e+001°)
1.24022362511890e+002	(-6.15635104283772e+000dB,-9.98408943576566e+001°)
1.24165230759243e+002	(-6.14664341068193e+000dB,-9.98520087012847e+001°)
1.24308263584464e+002	(-6.13693643275433e+000dB,-9.98631350983417e+001°)
1.24451461177140e+002	(-6.12723011047513e+000dB,-9.98742735602197e+001°)
1.24594823727076e+002	(-6.11752444526671e+000dB,-9.98854240983163e+001°)
1.24738351424296e+002	(-6.10781943855382e+000dB,-9.98965867240339e+001°)
1.24882044459041e+002	(-6.09811509176579e+000dB,-9.99077614487800e+001°)
1.25025903021774e+002	(-6.08841140633357e+000dB,-9.99189482839670e+001°)
1.25169927303174e+002	(-6.07870838369083e+000dB,-9.99301472410124e+001°)
1.25314117494143e+002	(-6.06900602527509e+000dB,-9.99413583313386e+001°)
1.25458473785801e+002	(-6.05930433252603e+000dB,-9.99525815663731e+001°)
1.25602996369489e+002	(-6.04960330688697e+000dB,-9.99638169575482e+001°)
1.25747685436768e+002	(-6.03990294980307e+000dB,-9.99750645163010e+001°)
1.25892541179418e+002	(-6.03020326272353e+000dB,-9.99863242540738e+001°)
1.26037563789444e+002	(-6.02050424709999e+000dB,-9.99975961823135e+001°)
1.26182753459069e+002	(-6.01080590438669e+000dB,-1.00008880312472e+002°)
1.26328110380737e+002	(-6.00110823604117e+000dB,-1.00020176656006e+002°)
1.26473634747117e+002	(-5.99141124352430e+000dB,-1.00031485224377e+002°)
1.26619326751096e+002	(-5.98171492829918e+000dB,-1.00042806029051e+002°)
1.26765186585786e+002	(-5.97201929183234e+000dB,-1.00054139081499e+002°)
1.26911214444521e+002	(-5.96232433559316e+000dB,-1.00065484393197e+002°)
1.27057410520856e+002	(-5.95263006105384e+000dB,-1.00076841975626e+002°)
1.27203775008571e+002	(-5.94293646968977e+000dB,-1.00088211840270e+002°)
1.27350308101668e+002	(-5.93324356297940e+000dB,-1.00099593998621e+002°)
1.27497009994373e+002	(-5.92355134240337e+000dB,-1.00110988462171e+002°)
1.27643880881136e+002	(-5.91385980944633e+000dB,-1.00122395242422e+002°)
1.27790920956630e+002	(-5.90416896559562e+000dB,-1.00133814350875e+002°)
1.27938130415754e+002	(-5.89447881234132e+000dB,-1.00145245799041e+002°)
1.28085509453630e+002	(-5.88478935117653e+000dB,-1.00156689598431e+002°)
1.28233058265604e+002	(-5.87510058359795e+000dB,-1.00168145760564e+002°)
1.28380777047249e+002	(-5.86541251110405e+000dB,-1.00179614296962e+002°)
1.28528665994363e+002	(-5.85572513519761e+000dB,-1.00191095219151e+002°)
1.28676725302969e+002	(-5.84603845738395e+000dB,-1.00202588538663e+002°)
1.28824955169315e+002	(-5.83635247917140e+000dB,-1.00214094267033e+002°)
1.28973355789877e+002	(-5.82666720207093e+000dB,-1.00225612415802e+002°)
1.29121927361355e+002	(-5.81698262759734e+000dB,-1.00237142996513e+002°)
1.29270670080678e+002	(-5.80729875726779e+000dB,-1.00248686020717e+002°)
1.29419584145000e+002	(-5.79761559260330e+000dB,-1.00260241499965e+002°)
1.29568669751704e+002	(-5.78793313512636e+000dB,-1.00271809445817e+002°)
1.29717927098397e+002	(-5.77825138636446e+000dB,-1.00283389869833e+002°)
1.29867356382918e+002	(-5.76857034784726e+000dB,-1.00294982783581e+002°)
1.30016957803331e+002	(-5.75889002110690e+000dB,-1.00306588198631e+002°)
1.30166731557928e+002	(-5.74921040767929e+000dB,-1.00318206126558e+002°)
1.30316677845232e+002	(-5.73953150910373e+000dB,-1.00329836578942e+002°)
1.30466796863991e+002	(-5.72985332692204e+000dB,-1.00341479567365e+002°)
1.30617088813186e+002	(-5.72017586267903e+000dB,-1.00353135103415e+002°)
1.30767553892024e+002	(-5.71049911792305e+000dB,-1.00364803198685e+002°)
1.30918192299943e+002	(-5.70082309420524e+000dB,-1.00376483864770e+002°)
1.31069004236610e+002	(-5.69114779308006e+000dB,-1.00388177113271e+002°)
1.31219989901922e+002	(-5.68147321610491e+000dB,-1.00399882955791e+002°)
1.31371149496008e+002	(-5.67179936484035e+000dB,-1.00411601403940e+002°)
1.31522483219226e+002	(-5.66212624085001e+000dB,-1.00423332469328e+002°)
1.31673991272164e+002	(-5.65245384570080e+000dB,-1.00435076163574e+002°)
1.31825673855643e+002	(-5.64278218096261e+000dB,-1.00446832498298e+002°)
1.31977531170714e+002	(-5.63311124820852e+000dB,-1.00458601485123e+002°)
1.32129563418659e+002	(-5.62344104901491e+000dB,-1.00470383135680e+002°)
1.32281770800995e+002	(-5.61377158496091e+000dB,-1.00482177461599e+002°)
1.32434153519468e+002	(-5.60410285762908e+000dB,-1.00493984474517e+002°)
1.32586711776058e+002	(-5.59443486860544e+000dB,-1.00505804186075e+002°)
1.32739445772976e+002	(-5.58476761947858e+000dB,-1.00517636607918e+002°)
1.32892355712668e+002	(-5.57510111184029e+000dB,-1.00529481751691e+002°)
1.33045441797811e+002	(-5.56543534728599e+000dB,-1.00541339629049e+002°)
1.33198704231318e+002	(-5.55577032741416e+000dB,-1.00553210251646e+002°)
1.33352143216334e+002	(-5.54610605382615e+000dB,-1.00565093631142e+002°)
1.33505758956239e+002	(-5.53644252812642e+000dB,-1.00576989779200e+002°)
1.33659551654646e+002	(-5.52677975192340e+000dB,-1.00588898707487e+002°)
1.33813521515404e+002	(-5.51711772682779e+000dB,-1.00600820427673e+002°)
1.33967668742596e+002	(-5.50745645445437e+000dB,-1.00612754951433e+002°)
1.34121993540539e+002	(-5.49779593642015e+000dB,-1.00624702290445e+002°)
1.34276496113788e+002	(-5.48813617434630e+000dB,-1.00636662456391e+002°)
1.34431176667133e+002	(-5.47847716985664e+000dB,-1.00648635460956e+002°)
1.34586035405597e+002	(-5.46881892457805e+000dB,-1.00660621315828e+002°)
1.34741072534443e+002	(-5.45916144014138e+000dB,-1.00672620032699e+002°)
1.34896288259167e+002	(-5.44950471817994e+000dB,-1.00684631623267e+002°)
1.35051682785506e+002	(-5.43984876033085e+000dB,-1.00696656099230e+002°)
1.35207256319430e+002	(-5.43019356823379e+000dB,-1.00708693472291e+002°)
1.35363009067148e+002	(-5.42053914353290e+000dB,-1.00720743754156e+002°)
1.35518941235106e+002	(-5.41088548787423e+000dB,-1.00732806956535e+002°)
1.35675053029988e+002	(-5.40123260290792e+000dB,-1.00744883091142e+002°)
1.35831344658718e+002	(-5.39158049028678e+000dB,-1.00756972169693e+002°)
1.35987816328454e+002	(-5.38192915166787e+000dB,-1.00769074203907e+002°)
1.36144468246597e+002	(-5.37227858871022e+000dB,-1.00781189205508e+002°)
1.36301300620785e+002	(-5.36262880307720e+000dB,-1.00793317186222e+002°)
1.36458313658895e+002	(-5.35297979643513e+000dB,-1.00805458157780e+002°)
1.36615507569043e+002	(-5.34333157045328e+000dB,-1.00817612131913e+002°)
1.36772882559587e+002	(-5.33368412680494e+000dB,-1.00829779120359e+002°)
