Freq.	V(vout)/V(n002)
1.00000000000000e+002	(-1.72608308264908e+001dB,8.20390576688625e+001°)
1.00115195553817e+002	(-1.72510228601609e+001dB,8.20300047924420e+001°)
1.00230523807790e+002	(-1.72412153279940e+001dB,8.20209418887099e+001°)
1.00345984914784e+002	(-1.72314082309526e+001dB,8.20118689474677e+001°)
1.00461579027840e+002	(-1.72216015700008e+001dB,8.20027859585096e+001°)
1.00577306300174e+002	(-1.72117953461052e+001dB,8.19936929116223e+001°)
1.00693166885180e+002	(-1.72019895602340e+001dB,8.19845897965854e+001°)
1.00809160936430e+002	(-1.71921842133578e+001dB,8.19754766031713e+001°)
1.00925288607668e+002	(-1.71823793064491e+001dB,8.19663533211452e+001°)
1.01041550052821e+002	(-1.71725748404826e+001dB,8.19572199402648e+001°)
1.01157945425990e+002	(-1.71627708164350e+001dB,8.19480764502808e+001°)
1.01274474881453e+002	(-1.71529672352849e+001dB,8.19389228409365e+001°)
1.01391138573668e+002	(-1.71431640980132e+001dB,8.19297591019682e+001°)
1.01507936657269e+002	(-1.71333614056028e+001dB,8.19205852231049e+001°)
1.01624869287070e+002	(-1.71235591590388e+001dB,8.19114011940682e+001°)
1.01741936618061e+002	(-1.71137573593081e+001dB,8.19022070045727e+001°)
1.01859138805412e+002	(-1.71039560074001e+001dB,8.18930026443259e+001°)
1.01976476004472e+002	(-1.70941551043060e+001dB,8.18837881030278e+001°)
1.02093948370768e+002	(-1.70843546510190e+001dB,8.18745633703714e+001°)
1.02211556060007e+002	(-1.70745546485350e+001dB,8.18653284360426e+001°)
1.02329299228076e+002	(-1.70647550978512e+001dB,8.18560832897200e+001°)
1.02447178031038e+002	(-1.70549559999675e+001dB,8.18468279210751e+001°)
1.02565192625141e+002	(-1.70451573558855e+001dB,8.18375623197723e+001°)
1.02683343166809e+002	(-1.70353591666094e+001dB,8.18282864754685e+001°)
1.02801629812648e+002	(-1.70255614331452e+001dB,8.18190003778141e+001°)
1.02920052719443e+002	(-1.70157641565011e+001dB,8.18097040164517e+001°)
1.03038612044162e+002	(-1.70059673376874e+001dB,8.18003973810173e+001°)
1.03157307943951e+002	(-1.69961709777165e+001dB,8.17910804611395e+001°)
1.03276140576140e+002	(-1.69863750776031e+001dB,8.17817532464398e+001°)
1.03395110098237e+002	(-1.69765796383642e+001dB,8.17724157265326e+001°)
1.03514216667935e+002	(-1.69667846610183e+001dB,8.17630678910253e+001°)
1.03633460443104e+002	(-1.69569901465867e+001dB,8.17537097295182e+001°)
1.03752841581801e+002	(-1.69471960960924e+001dB,8.17443412316045e+001°)
1.03872360242262e+002	(-1.69374025105612e+001dB,8.17349623868702e+001°)
1.03992016582906e+002	(-1.69276093910203e+001dB,8.17255731848943e+001°)
1.04111810762334e+002	(-1.69178167384996e+001dB,8.17161736152488e+001°)
1.04231742939331e+002	(-1.69080245540307e+001dB,8.17067636674987e+001°)
1.04351813272863e+002	(-1.68982328386481e+001dB,8.16973433312018e+001°)
1.04472021922080e+002	(-1.68884415933878e+001dB,8.16879125959090e+001°)
1.04592369046317e+002	(-1.68786508192883e+001dB,8.16784714511639e+001°)
1.04712854805090e+002	(-1.68688605173902e+001dB,8.16690198865035e+001°)
1.04833479358100e+002	(-1.68590706887365e+001dB,8.16595578914575e+001°)
1.04954242865233e+002	(-1.68492813343720e+001dB,8.16500854555487e+001°)
1.05075145486555e+002	(-1.68394924553442e+001dB,8.16406025682927e+001°)
1.05196187382323e+002	(-1.68297040527021e+001dB,8.16311092191985e+001°)
1.05317368712972e+002	(-1.68199161274980e+001dB,8.16216053977677e+001°)
1.05438689639126e+002	(-1.68101286807851e+001dB,8.16120910934952e+001°)
1.05560150321593e+002	(-1.68003417136201e+001dB,8.16025662958689e+001°)
1.05681750921366e+002	(-1.67905552270608e+001dB,8.15930309943696e+001°)
1.05803491599623e+002	(-1.67807692221681e+001dB,8.15834851784713e+001°)
1.05925372517729e+002	(-1.67709837000047e+001dB,8.15739288376411e+001°)
1.06047393837234e+002	(-1.67611986616355e+001dB,8.15643619613390e+001°)
1.06169555719873e+002	(-1.67514141081279e+001dB,8.15547845390181e+001°)
1.06291858327569e+002	(-1.67416300405513e+001dB,8.15451965601246e+001°)
1.06414301822432e+002	(-1.67318464599776e+001dB,8.15355980140981e+001°)
1.06536886366757e+002	(-1.67220633674806e+001dB,8.15259888903707e+001°)
1.06659612123026e+002	(-1.67122807641368e+001dB,8.15163691783683e+001°)
1.06782479253910e+002	(-1.67024986510245e+001dB,8.15067388675093e+001°)
1.06905487922266e+002	(-1.66927170292248e+001dB,8.14970979472055e+001°)
1.07028638291139e+002	(-1.66829358998204e+001dB,8.14874464068621e+001°)
1.07151930523761e+002	(-1.66731552638970e+001dB,8.14777842358769e+001°)
1.07275364783553e+002	(-1.66633751225421e+001dB,8.14681114236414e+001°)
1.07398941234125e+002	(-1.66535954768454e+001dB,8.14584279595398e+001°)
1.07522660039273e+002	(-1.66438163278993e+001dB,8.14487338329498e+001°)
1.07646521362984e+002	(-1.66340376767983e+001dB,8.14390290332421e+001°)
1.07770525369433e+002	(-1.66242595246391e+001dB,8.14293135497808e+001°)
1.07894672222983e+002	(-1.66144818725209e+001dB,8.14195873719229e+001°)
1.08018962088190e+002	(-1.66047047215450e+001dB,8.14098504890189e+001°)
1.08143395129794e+002	(-1.65949280728153e+001dB,8.14001028904124e+001°)
1.08267971512730e+002	(-1.65851519274375e+001dB,8.13903445654402e+001°)
1.08392691402121e+002	(-1.65753762865202e+001dB,8.13805755034324e+001°)
1.08517554963279e+002	(-1.65656011511739e+001dB,8.13707956937123e+001°)
1.08642562361707e+002	(-1.65558265225118e+001dB,8.13610051255965e+001°)
1.08767713763100e+002	(-1.65460524016489e+001dB,8.13512037883949e+001°)
1.08893009333344e+002	(-1.65362787897032e+001dB,8.13413916714106e+001°)
1.09018449238513e+002	(-1.65265056877943e+001dB,8.13315687639400e+001°)
1.09144033644876e+002	(-1.65167330970450e+001dB,8.13217350552730e+001°)
1.09269762718892e+002	(-1.65069610185797e+001dB,8.13118905346925e+001°)
1.09395636627210e+002	(-1.64971894535256e+001dB,8.13020351914749e+001°)
1.09521655536674e+002	(-1.64874184030120e+001dB,8.12921690148899e+001°)
1.09647819614319e+002	(-1.64776478681706e+001dB,8.12822919942005e+001°)
1.09774129027372e+002	(-1.64678778501357e+001dB,8.12724041186632e+001°)
1.09900583943253e+002	(-1.64581083500436e+001dB,8.12625053775277e+001°)
1.10027184529574e+002	(-1.64483393690334e+001dB,8.12525957600371e+001°)
1.10153930954142e+002	(-1.64385709082463e+001dB,8.12426752554279e+001°)
1.10280823384956e+002	(-1.64288029688258e+001dB,8.12327438529300e+001°)
1.10407861990208e+002	(-1.64190355519181e+001dB,8.12228015417668e+001°)
1.10535046938285e+002	(-1.64092686586716e+001dB,8.12128483111550e+001°)
1.10662378397767e+002	(-1.63995022902369e+001dB,8.12028841503047e+001°)
1.10789856537430e+002	(-1.63897364477675e+001dB,8.11929090484196e+001°)
1.10917481526241e+002	(-1.63799711324189e+001dB,8.11829229946965e+001°)
1.11045253533365e+002	(-1.63702063453493e+001dB,8.11729259783262e+001°)
1.11173172728160e+002	(-1.63604420877189e+001dB,8.11629179884924e+001°)
1.11301239280180e+002	(-1.63506783606908e+001dB,8.11528990143728e+001°)
1.11429453359174e+002	(-1.63409151654302e+001dB,8.11428690451381e+001°)
1.11557815135086e+002	(-1.63311525031049e+001dB,8.11328280699529e+001°)
1.11686324778057e+002	(-1.63213903748848e+001dB,8.11227760779751e+001°)
1.11814982458423e+002	(-1.63116287819429e+001dB,8.11127130583563e+001°)
1.11943788346716e+002	(-1.63018677254540e+001dB,8.11026390002414e+001°)
1.12072742613665e+002	(-1.62921072065956e+001dB,8.10925538927689e+001°)
1.12201845430197e+002	(-1.62823472265477e+001dB,8.10824577250712e+001°)
1.12331096967433e+002	(-1.62725877864926e+001dB,8.10723504862738e+001°)
1.12460497396693e+002	(-1.62628288876152e+001dB,8.10622321654960e+001°)
1.12590046889495e+002	(-1.62530705311029e+001dB,8.10521027518508e+001°)
1.12719745617552e+002	(-1.62433127181454e+001dB,8.10419622344447e+001°)
1.12849593752777e+002	(-1.62335554499352e+001dB,8.10318106023777e+001°)
1.12979591467281e+002	(-1.62237987276666e+001dB,8.10216478447436e+001°)
1.13109738933371e+002	(-1.62140425525373e+001dB,8.10114739506299e+001°)
1.13240036323557e+002	(-1.62042869257466e+001dB,8.10012889091175e+001°)
1.13370483810542e+002	(-1.61945318484969e+001dB,8.09910927092813e+001°)
1.13501081567232e+002	(-1.61847773219929e+001dB,8.09808853401895e+001°)
1.13631829766732e+002	(-1.61750233474418e+001dB,8.09706667909044e+001°)
1.13762728582344e+002	(-1.61652699260533e+001dB,8.09604370504817e+001°)
1.13893778187572e+002	(-1.61555170590396e+001dB,8.09501961079709e+001°)
1.14024978756118e+002	(-1.61457647476154e+001dB,8.09399439524153e+001°)
1.14156330461885e+002	(-1.61360129929980e+001dB,8.09296805728520e+001°)
1.14287833478978e+002	(-1.61262617964070e+001dB,8.09194059583116e+001°)
1.14419487981699e+002	(-1.61165111590652e+001dB,8.09091200978187e+001°)
1.14551294144554e+002	(-1.61067610821969e+001dB,8.08988229803916e+001°)
1.14683252142249e+002	(-1.60970115670298e+001dB,8.08885145950424e+001°)
1.14815362149689e+002	(-1.60872626147935e+001dB,8.08781949307770e+001°)
1.14947624341984e+002	(-1.60775142267208e+001dB,8.08678639765952e+001°)
1.15080038894444e+002	(-1.60677664040465e+001dB,8.08575217214906e+001°)
1.15212605982582e+002	(-1.60580191480083e+001dB,8.08471681544505e+001°)
1.15345325782110e+002	(-1.60482724598461e+001dB,8.08368032644562e+001°)
1.15478198468947e+002	(-1.60385263408029e+001dB,8.08264270404829e+001°)
1.15611224219211e+002	(-1.60287807921238e+001dB,8.08160394714997e+001°)
1.15744403209225e+002	(-1.60190358150567e+001dB,8.08056405464695e+001°)
1.15877735615514e+002	(-1.60092914108519e+001dB,8.07952302543491e+001°)
1.16011221614806e+002	(-1.59995475807625e+001dB,8.07848085840894e+001°)
1.16144861384035e+002	(-1.59898043260442e+001dB,8.07743755246351e+001°)
1.16278655100336e+002	(-1.59800616479549e+001dB,8.07639310649249e+001°)
1.16412602941050e+002	(-1.59703195477556e+001dB,8.07534751938914e+001°)
1.16546705083721e+002	(-1.59605780267097e+001dB,8.07430079004614e+001°)
1.16680961706097e+002	(-1.59508370860831e+001dB,8.07325291735554e+001°)
1.16815372986133e+002	(-1.59410967271443e+001dB,8.07220390020881e+001°)
1.16949939101988e+002	(-1.59313569511648e+001dB,8.07115373749682e+001°)
1.17084660232025e+002	(-1.59216177594183e+001dB,8.07010242810985e+001°)
1.17219536554814e+002	(-1.59118791531812e+001dB,8.06904997093757e+001°)
1.17354568249130e+002	(-1.59021411337326e+001dB,8.06799636486908e+001°)
1.17489755493954e+002	(-1.58924037023544e+001dB,8.06694160879286e+001°)
1.17625098468473e+002	(-1.58826668603309e+001dB,8.06588570159681e+001°)
1.17760597352082e+002	(-1.58729306089490e+001dB,8.06482864216826e+001°)
1.17896252324380e+002	(-1.58631949494984e+001dB,8.06377042939394e+001°)
1.18032063565174e+002	(-1.58534598832716e+001dB,8.06271106215998e+001°)
1.18168031254479e+002	(-1.58437254115634e+001dB,8.06165053935196e+001°)
1.18304155572518e+002	(-1.58339915356715e+001dB,8.06058885985484e+001°)
1.18440436699718e+002	(-1.58242582568964e+001dB,8.05952602255301e+001°)
1.18576874816717e+002	(-1.58145255765408e+001dB,8.05846202633031e+001°)
1.18713470104361e+002	(-1.58047934959103e+001dB,8.05739687006996e+001°)
1.18850222743703e+002	(-1.57950620163136e+001dB,8.05633055265464e+001°)
1.18987132916005e+002	(-1.57853311390614e+001dB,8.05526307296641e+001°)
1.19124200802739e+002	(-1.57756008654678e+001dB,8.05419442988681e+001°)
1.19261426585583e+002	(-1.57658711968490e+001dB,8.05312462229677e+001°)
1.19398810446429e+002	(-1.57561421345240e+001dB,8.05205364907666e+001°)
1.19536352567373e+002	(-1.57464136798147e+001dB,8.05098150910628e+001°)
1.19674053130726e+002	(-1.57366858340459e+001dB,8.04990820126488e+001°)
1.19811912319005e+002	(-1.57269585985447e+001dB,8.04883372443113e+001°)
1.19949930314939e+002	(-1.57172319746409e+001dB,8.04775807748312e+001°)
1.20088107301468e+002	(-1.57075059636675e+001dB,8.04668125929840e+001°)
1.20226443461743e+002	(-1.56977805669599e+001dB,8.04560326875397e+001°)
1.20364938979123e+002	(-1.56880557858561e+001dB,8.04452410472623e+001°)
1.20503594037181e+002	(-1.56783316216971e+001dB,8.04344376609107e+001°)
1.20642408819701e+002	(-1.56686080758265e+001dB,8.04236225172379e+001°)
1.20781383510679e+002	(-1.56588851495907e+001dB,8.04127956049915e+001°)
1.20920518294322e+002	(-1.56491628443391e+001dB,8.04019569129135e+001°)
1.21059813355050e+002	(-1.56394411614235e+001dB,8.03911064297405e+001°)
1.21199268877494e+002	(-1.56297201021984e+001dB,8.03802441442035e+001°)
1.21338885046499e+002	(-1.56199996680215e+001dB,8.03693700450282e+001°)
1.21478662047124e+002	(-1.56102798602529e+001dB,8.03584841209346e+001°)
1.21618600064638e+002	(-1.56005606802556e+001dB,8.03475863606375e+001°)
1.21758699284527e+002	(-1.55908421293956e+001dB,8.03366767528460e+001°)
1.21898959892488e+002	(-1.55811242090414e+001dB,8.03257552862641e+001°)
1.22039382074433e+002	(-1.55714069205641e+001dB,8.03148219495901e+001°)
1.22179966016489e+002	(-1.55616902653381e+001dB,8.03038767315173e+001°)
1.22320711904995e+002	(-1.55519742447404e+001dB,8.02929196207332e+001°)
1.22461619926506e+002	(-1.55422588601508e+001dB,8.02819506059204e+001°)
1.22602690267794e+002	(-1.55325441129519e+001dB,8.02709696757560e+001°)
1.22743923115842e+002	(-1.55228300045291e+001dB,8.02599768189116e+001°)
1.22885318657852e+002	(-1.55131165362705e+001dB,8.02489720240538e+001°)
1.23026877081240e+002	(-1.55034037095672e+001dB,8.02379552798438e+001°)
1.23168598573637e+002	(-1.54936915258134e+001dB,8.02269265749377e+001°)
1.23310483322892e+002	(-1.54839799864055e+001dB,8.02158858979861e+001°)
1.23452531517070e+002	(-1.54742690927434e+001dB,8.02048332376347e+001°)
1.23594743344452e+002	(-1.54645588462292e+001dB,8.01937685825237e+001°)
1.23737118993537e+002	(-1.54548492482684e+001dB,8.01826919212884e+001°)
1.23879658653038e+002	(-1.54451403002690e+001dB,8.01716032425588e+001°)
1.24022362511890e+002	(-1.54354320036422e+001dB,8.01605025349597e+001°)
1.24165230759243e+002	(-1.54257243598015e+001dB,8.01493897871110e+001°)
1.24308263584464e+002	(-1.54160173701641e+001dB,8.01382649876273e+001°)
1.24451461177140e+002	(-1.54063110361496e+001dB,8.01271281251181e+001°)
1.24594823727076e+002	(-1.53966053591800e+001dB,8.01159791881880e+001°)
1.24738351424296e+002	(-1.53869003406810e+001dB,8.01048181654365e+001°)
1.24882044459041e+002	(-1.53771959820810e+001dB,8.00936450454581e+001°)
1.25025903021774e+002	(-1.53674922848111e+001dB,8.00824598168421e+001°)
1.25169927303174e+002	(-1.53577892503052e+001dB,8.00712624681730e+001°)
1.25314117494143e+002	(-1.53480868800006e+001dB,8.00600529880304e+001°)
1.25458473785801e+002	(-1.53383851753370e+001dB,8.00488313649888e+001°)
1.25602996369489e+002	(-1.53286841377572e+001dB,8.00375975876177e+001°)
1.25747685436768e+002	(-1.53189837687072e+001dB,8.00263516444819e+001°)
1.25892541179418e+002	(-1.53092840696352e+001dB,8.00150935241413e+001°)
1.26037563789444e+002	(-1.52995850419931e+001dB,8.00038232151507e+001°)
1.26182753459069e+002	(-1.52898866872356e+001dB,7.99925407060603e+001°)
1.26328110380737e+002	(-1.52801890068197e+001dB,7.99812459854153e+001°)
1.26473634747117e+002	(-1.52704920022062e+001dB,7.99699390417562e+001°)
1.26619326751096e+002	(-1.52607956748584e+001dB,7.99586198636187e+001°)
1.26765186585786e+002	(-1.52511000262426e+001dB,7.99472884395337e+001°)
1.26911214444521e+002	(-1.52414050578282e+001dB,7.99359447580273e+001°)
1.27057410520856e+002	(-1.52317107710872e+001dB,7.99245888076210e+001°)
1.27203775008571e+002	(-1.52220171674949e+001dB,7.99132205768314e+001°)
1.27350308101668e+002	(-1.52123242485298e+001dB,7.99018400541707e+001°)
1.27497009994373e+002	(-1.52026320156730e+001dB,7.98904472281461e+001°)
1.27643880881136e+002	(-1.51929404704085e+001dB,7.98790420872604e+001°)
1.27790920956630e+002	(-1.51832496142234e+001dB,7.98676246200117e+001°)
1.27938130415754e+002	(-1.51735594486082e+001dB,7.98561948148935e+001°)
1.28085509453630e+002	(-1.51638699750559e+001dB,7.98447526603947e+001°)
1.28233058265604e+002	(-1.51541811950626e+001dB,7.98332981449996e+001°)
1.28380777047249e+002	(-1.51444931101276e+001dB,7.98218312571881e+001°)
1.28528665994363e+002	(-1.51348057217531e+001dB,7.98103519854354e+001°)
1.28676725302969e+002	(-1.51251190314445e+001dB,7.97988603182124e+001°)
1.28824955169315e+002	(-1.51154330407098e+001dB,7.97873562439852e+001°)
1.28973355789877e+002	(-1.51057477510603e+001dB,7.97758397512160e+001°)
1.29121927361355e+002	(-1.50960631640104e+001dB,7.97643108283619e+001°)
1.29270670080678e+002	(-1.50863792810776e+001dB,7.97527694638761e+001°)
1.29419584145000e+002	(-1.50766961037823e+001dB,7.97412156462072e+001°)
1.29568669751704e+002	(-1.50670136336477e+001dB,7.97296493637995e+001°)
1.29717927098397e+002	(-1.50573318722007e+001dB,7.97180706050929e+001°)
1.29867356382918e+002	(-1.50476508209708e+001dB,7.97064793585229e+001°)
1.30016957803331e+002	(-1.50379704814903e+001dB,7.96948756125210e+001°)
1.30166731557928e+002	(-1.50282908552956e+001dB,7.96832593555140e+001°)
1.30316677845232e+002	(-1.50186119439250e+001dB,7.96716305759248e+001°)
1.30466796863991e+002	(-1.50089337489206e+001dB,7.96599892621720e+001°)
1.30617088813186e+002	(-1.49992562718274e+001dB,7.96483354026698e+001°)
1.30767553892024e+002	(-1.49895795141934e+001dB,7.96366689858285e+001°)
1.30918192299943e+002	(-1.49799034775698e+001dB,7.96249900000539e+001°)
1.31069004236610e+002	(-1.49702281635110e+001dB,7.96132984337479e+001°)
1.31219989901922e+002	(-1.49605535735744e+001dB,7.96015942753083e+001°)
1.31371149496008e+002	(-1.49508797093205e+001dB,7.95898775131287e+001°)
1.31522483219226e+002	(-1.49412065723129e+001dB,7.95781481355986e+001°)
1.31673991272164e+002	(-1.49315341641182e+001dB,7.95664061311036e+001°)
1.31825673855643e+002	(-1.49218624863066e+001dB,7.95546514880252e+001°)
1.31977531170714e+002	(-1.49121915404509e+001dB,7.95428841947408e+001°)
1.32129563418659e+002	(-1.49025213281274e+001dB,7.95311042396240e+001°)
1.32281770800995e+002	(-1.48928518509152e+001dB,7.95193116110443e+001°)
1.32434153519468e+002	(-1.48831831103972e+001dB,7.95075062973674e+001°)
1.32586711776058e+002	(-1.48735151081586e+001dB,7.94956882869550e+001°)
1.32739445772976e+002	(-1.48638478457884e+001dB,7.94838575681651e+001°)
1.32892355712668e+002	(-1.48541813248783e+001dB,7.94720141293515e+001°)
1.33045441797811e+002	(-1.48445155470239e+001dB,7.94601579588644e+001°)
1.33198704231318e+002	(-1.48348505138229e+001dB,7.94482890450504e+001°)
1.33352143216334e+002	(-1.48251862268773e+001dB,7.94364073762518e+001°)
1.33505758956239e+002	(-1.48155226877914e+001dB,7.94245129408076e+001°)
1.33659551654646e+002	(-1.48058598981733e+001dB,7.94126057270528e+001°)
1.33813521515404e+002	(-1.47961978596340e+001dB,7.94006857233189e+001°)
1.33967668742596e+002	(-1.47865365737875e+001dB,7.93887529179335e+001°)
1.34121993540539e+002	(-1.47768760422516e+001dB,7.93768072992207e+001°)
1.34276496113788e+002	(-1.47672162666470e+001dB,7.93648488555010e+001°)
1.34431176667133e+002	(-1.47575572485974e+001dB,7.93528775750912e+001°)
1.34586035405597e+002	(-1.47478989897299e+001dB,7.93408934463045e+001°)
1.34741072534443e+002	(-1.47382414916750e+001dB,7.93288964574505e+001°)
1.34896288259167e+002	(-1.47285847560662e+001dB,7.93168865968356e+001°)
1.35051682785506e+002	(-1.47189287845403e+001dB,7.93048638527622e+001°)
1.35207256319430e+002	(-1.47092735787376e+001dB,7.92928282135296e+001°)
1.35363009067148e+002	(-1.46996191403011e+001dB,7.92807796674335e+001°)
1.35518941235106e+002	(-1.46899654708775e+001dB,7.92687182027663e+001°)
1.35675053029988e+002	(-1.46803125721167e+001dB,7.92566438078168e+001°)
1.35831344658718e+002	(-1.46706604456716e+001dB,7.92445564708705e+001°)
1.35987816328454e+002	(-1.46610090931990e+001dB,7.92324561802097e+001°)
1.36144468246597e+002	(-1.46513585163581e+001dB,7.92203429241132e+001°)
1.36301300620785e+002	(-1.46417087168119e+001dB,7.92082166908567e+001°)
1.36458313658895e+002	(-1.46320596962269e+001dB,7.91960774687123e+001°)
1.36615507569043e+002	(-1.46224114562723e+001dB,7.91839252459492e+001°)
1.36772882559587e+002	(-1.46127639986211e+001dB,7.91717600108333e+001°)
1.36930438839123e+002	(-1.46031173249491e+001dB,7.91595817516273e+001°)
1.37088176616488e+002	(-1.45934714369360e+001dB,7.91473904565905e+001°)
1.37246096100758e+002	(-1.45838263362647e+001dB,7.91351861139796e+001°)
1.37404197501254e+002	(-1.45741820246207e+001dB,7.91229687120477e+001°)
