Freq.	V(vout)/V(vin)
1.00000000000000e+002	(-4.47302257148072e+001dB,1.67599868520771e+002°)
1.00115195553817e+002	(-4.47104777260842e+001dB,1.67585722372296e+002°)
1.00230523807790e+002	(-4.46907303089576e+001dB,1.67571560399791e+002°)
1.00345984914784e+002	(-4.46709834646988e+001dB,1.67557382586622e+002°)
1.00461579027840e+002	(-4.46512371945871e+001dB,1.67543188916140e+002°)
1.00577306300174e+002	(-4.46314914999058e+001dB,1.67528979371684e+002°)
1.00693166885180e+002	(-4.46117463819364e+001dB,1.67514753936578e+002°)
1.00809160936430e+002	(-4.45920018419651e+001dB,1.67500512594133e+002°)
1.00925288607668e+002	(-4.45722578812800e+001dB,1.67486255327643e+002°)
1.01041550052821e+002	(-4.45525145011749e+001dB,1.67471982120394e+002°)
1.01157945425990e+002	(-4.45327717029443e+001dB,1.67457692955653e+002°)
1.01274474881453e+002	(-4.45130294878856e+001dB,1.67443387816676e+002°)
1.01391138573668e+002	(-4.44932878572984e+001dB,1.67429066686703e+002°)
1.01507936657269e+002	(-4.44735468124845e+001dB,1.67414729548961e+002°)
1.01624869287070e+002	(-4.44538063547521e+001dB,1.67400376386665e+002°)
1.01741936618061e+002	(-4.44340664854092e+001dB,1.67386007183013e+002°)
1.01859138805412e+002	(-4.44143272057650e+001dB,1.67371621921192e+002°)
1.01976476004472e+002	(-4.43945885171358e+001dB,1.67357220584373e+002°)
1.02093948370768e+002	(-4.43748504208419e+001dB,1.67342803155716e+002°)
1.02211556060007e+002	(-4.43551129181963e+001dB,1.67328369618362e+002°)
1.02329299228076e+002	(-4.43353760105275e+001dB,1.67313919955445e+002°)
1.02447178031038e+002	(-4.43156396991578e+001dB,1.67299454150078e+002°)
1.02565192625141e+002	(-4.42959039854156e+001dB,1.67284972185366e+002°)
1.02683343166809e+002	(-4.42761688706365e+001dB,1.67270474044399e+002°)
1.02801629812648e+002	(-4.42564343561489e+001dB,1.67255959710249e+002°)
1.02920052719443e+002	(-4.42367004432951e+001dB,1.67241429165980e+002°)
1.03038612044162e+002	(-4.42169671334097e+001dB,1.67226882394637e+002°)
1.03157307943951e+002	(-4.41972344278389e+001dB,1.67212319379256e+002°)
1.03276140576140e+002	(-4.41775023279308e+001dB,1.67197740102856e+002°)
1.03395110098237e+002	(-4.41577708350289e+001dB,1.67183144548443e+002°)
1.03514216667935e+002	(-4.41380399504860e+001dB,1.67168532699008e+002°)
1.03633460443104e+002	(-4.41183096756584e+001dB,1.67153904537531e+002°)
1.03752841581801e+002	(-4.40985800119003e+001dB,1.67139260046977e+002°)
1.03872360242262e+002	(-4.40788509605759e+001dB,1.67124599210295e+002°)
1.03992016582906e+002	(-4.40591225230453e+001dB,1.67109922010423e+002°)
1.04111810762334e+002	(-4.40393947006758e+001dB,1.67095228430285e+002°)
1.04231742939331e+002	(-4.40196674948368e+001dB,1.67080518452789e+002°)
1.04351813272863e+002	(-4.39999409068954e+001dB,1.67065792060831e+002°)
1.04472021922080e+002	(-4.39802149382358e+001dB,1.67051049237294e+002°)
1.04592369046317e+002	(-4.39604895902276e+001dB,1.67036289965045e+002°)
1.04712854805090e+002	(-4.39407648642544e+001dB,1.67021514226938e+002°)
1.04833479358100e+002	(-4.39210407617019e+001dB,1.67006722005815e+002°)
1.04954242865233e+002	(-4.39013172839515e+001dB,1.66991913284500e+002°)
1.05075145486555e+002	(-4.38815944323963e+001dB,1.66977088045809e+002°)
1.05196187382323e+002	(-4.38618722084313e+001dB,1.66962246272540e+002°)
1.05317368712972e+002	(-4.38421506134475e+001dB,1.66947387947478e+002°)
1.05438689639126e+002	(-4.38224296488463e+001dB,1.66932513053395e+002°)
1.05560150321593e+002	(-4.38027093160287e+001dB,1.66917621573049e+002°)
1.05681750921366e+002	(-4.37829896163986e+001dB,1.66902713489185e+002°)
1.05803491599623e+002	(-4.37632705513606e+001dB,1.66887788784531e+002°)
1.05925372517729e+002	(-4.37435521223348e+001dB,1.66872847441807e+002°)
1.06047393837234e+002	(-4.37238343307248e+001dB,1.66857889443713e+002°)
1.06169555719873e+002	(-4.37041171779509e+001dB,1.66842914772940e+002°)
1.06291858327569e+002	(-4.36844006654354e+001dB,1.66827923412163e+002°)
1.06414301822432e+002	(-4.36646847945976e+001dB,1.66812915344044e+002°)
1.06536886366757e+002	(-4.36449695668618e+001dB,1.66797890551230e+002°)
1.06659612123026e+002	(-4.36252549836621e+001dB,1.66782849016356e+002°)
1.06782479253910e+002	(-4.36055410464271e+001dB,1.66767790722044e+002°)
1.06905487922266e+002	(-4.35858277565908e+001dB,1.66752715650899e+002°)
1.07028638291139e+002	(-4.35661151155929e+001dB,1.66737623785514e+002°)
1.07151930523761e+002	(-4.35464031248751e+001dB,1.66722515108470e+002°)
1.07275364783553e+002	(-4.35266917858796e+001dB,1.66707389602332e+002°)
1.07398941234125e+002	(-4.35069811000529e+001dB,1.66692247249652e+002°)
1.07522660039273e+002	(-4.34872710688491e+001dB,1.66677088032969e+002°)
1.07646521362984e+002	(-4.34675616937175e+001dB,1.66661911934806e+002°)
1.07770525369433e+002	(-4.34478529761164e+001dB,1.66646718937676e+002°)
1.07894672222983e+002	(-4.34281449175061e+001dB,1.66631509024076e+002°)
1.08018962088190e+002	(-4.34084375193490e+001dB,1.66616282176489e+002°)
1.08143395129794e+002	(-4.33887307831085e+001dB,1.66601038377386e+002°)
1.08267971512730e+002	(-4.33690247102573e+001dB,1.66585777609222e+002°)
1.08392691402121e+002	(-4.33493193022655e+001dB,1.66570499854441e+002°)
1.08517554963279e+002	(-4.33296145606078e+001dB,1.66555205095472e+002°)
1.08642562361707e+002	(-4.33099104867631e+001dB,1.66539893314729e+002°)
1.08767713763100e+002	(-4.32902070822135e+001dB,1.66524564494616e+002°)
1.08893009333344e+002	(-4.32705043484442e+001dB,1.66509218617520e+002°)
1.09018449238513e+002	(-4.32508022869405e+001dB,1.66493855665815e+002°)
1.09144033644876e+002	(-4.32311008991946e+001dB,1.66478475621863e+002°)
1.09269762718892e+002	(-4.32114001867026e+001dB,1.66463078468011e+002°)
1.09395636627210e+002	(-4.31917001509594e+001dB,1.66447664186592e+002°)
1.09521655536674e+002	(-4.31720007934668e+001dB,1.66432232759927e+002°)
1.09647819614319e+002	(-4.31523021157281e+001dB,1.66416784170322e+002°)
1.09774129027372e+002	(-4.31326041192483e+001dB,1.66401318400070e+002°)
1.09900583943253e+002	(-4.31129068055449e+001dB,1.66385835431452e+002°)
1.10027184529574e+002	(-4.30932101761218e+001dB,1.66370335246730e+002°)
1.10153930954142e+002	(-4.30735142324988e+001dB,1.66354817828159e+002°)
1.10280823384956e+002	(-4.30538189761983e+001dB,1.66339283157978e+002°)
1.10407861990208e+002	(-4.30341244087425e+001dB,1.66323731218410e+002°)
1.10535046938285e+002	(-4.30144305316558e+001dB,1.66308161991668e+002°)
1.10662378397767e+002	(-4.29947373464675e+001dB,1.66292575459949e+002°)
1.10789856537430e+002	(-4.29750448547136e+001dB,1.66276971605439e+002°)
1.10917481526241e+002	(-4.29553530579267e+001dB,1.66261350410307e+002°)
1.11045253533365e+002	(-4.29356619576483e+001dB,1.66245711856711e+002°)
1.11173172728160e+002	(-4.29159715554198e+001dB,1.66230055926795e+002°)
1.11301239280180e+002	(-4.28962818527863e+001dB,1.66214382602689e+002°)
1.11429453359174e+002	(-4.28765928512986e+001dB,1.66198691866511e+002°)
1.11557815135086e+002	(-4.28569045525099e+001dB,1.66182983700363e+002°)
1.11686324778057e+002	(-4.28372169579717e+001dB,1.66167258086335e+002°)
1.11814982458423e+002	(-4.28175300692467e+001dB,1.66151515006504e+002°)
1.11943788346716e+002	(-4.27978438878954e+001dB,1.66135754442932e+002°)
1.12072742613665e+002	(-4.27781584154865e+001dB,1.66119976377669e+002°)
1.12201845430197e+002	(-4.27584736535845e+001dB,1.66104180792751e+002°)
1.12331096967433e+002	(-4.27387896037631e+001dB,1.66088367670200e+002°)
1.12460497396693e+002	(-4.27191062675991e+001dB,1.66072536992025e+002°)
1.12590046889495e+002	(-4.26994236466709e+001dB,1.66056688740221e+002°)
1.12719745617552e+002	(-4.26797417425615e+001dB,1.66040822896772e+002°)
1.12849593752777e+002	(-4.26600605568540e+001dB,1.66024939443645e+002°)
1.12979591467281e+002	(-4.26403800911396e+001dB,1.66009038362797e+002°)
1.13109738933371e+002	(-4.26207003470105e+001dB,1.65993119636168e+002°)
1.13240036323557e+002	(-4.26010213260618e+001dB,1.65977183245687e+002°)
1.13370483810542e+002	(-4.25813430298927e+001dB,1.65961229173270e+002°)
1.13501081567232e+002	(-4.25616654601046e+001dB,1.65945257400818e+002°)
1.13631829766732e+002	(-4.25419886183054e+001dB,1.65929267910219e+002°)
1.13762728582344e+002	(-4.25223125061012e+001dB,1.65913260683348e+002°)
1.13893778187572e+002	(-4.25026371251079e+001dB,1.65897235702067e+002°)
1.14024978756118e+002	(-4.24829624769416e+001dB,1.65881192948225e+002°)
1.14156330461885e+002	(-4.24632885632192e+001dB,1.65865132403655e+002°)
1.14287833478978e+002	(-4.24436153855653e+001dB,1.65849054050181e+002°)
1.14419487981699e+002	(-4.24239429456056e+001dB,1.65832957869609e+002°)
1.14551294144554e+002	(-4.24042712449691e+001dB,1.65816843843734e+002°)
1.14683252142249e+002	(-4.23846002852924e+001dB,1.65800711954340e+002°)
1.14815362149689e+002	(-4.23649300682094e+001dB,1.65784562183193e+002°)
1.14947624341984e+002	(-4.23452605953594e+001dB,1.65768394512049e+002°)
1.15080038894444e+002	(-4.23255918683863e+001dB,1.65752208922649e+002°)
1.15212605982582e+002	(-4.23059238889392e+001dB,1.65736005396722e+002°)
1.15345325782110e+002	(-4.22862566586684e+001dB,1.65719783915983e+002°)
1.15478198468947e+002	(-4.22665901792242e+001dB,1.65703544462134e+002°)
1.15611224219211e+002	(-4.22469244522683e+001dB,1.65687287016864e+002°)
1.15744403209225e+002	(-4.22272594794603e+001dB,1.65671011561849e+002°)
1.15877735615514e+002	(-4.22075952624636e+001dB,1.65654718078750e+002°)
1.16011221614806e+002	(-4.21879318029474e+001dB,1.65638406549216e+002°)
1.16144861384035e+002	(-4.21682691025818e+001dB,1.65622076954883e+002°)
1.16278655100336e+002	(-4.21486071630438e+001dB,1.65605729277375e+002°)
1.16412602941050e+002	(-4.21289459860109e+001dB,1.65589363498300e+002°)
1.16546705083721e+002	(-4.21092855731658e+001dB,1.65572979599255e+002°)
1.16680961706097e+002	(-4.20896259261920e+001dB,1.65556577561822e+002°)
1.16815372986133e+002	(-4.20699670467806e+001dB,1.65540157367572e+002°)
1.16949939101988e+002	(-4.20503089366249e+001dB,1.65523718998061e+002°)
1.17084660232025e+002	(-4.20306515974184e+001dB,1.65507262434834e+002°)
1.17219536554814e+002	(-4.20109950308640e+001dB,1.65490787659420e+002°)
1.17354568249130e+002	(-4.19913392386641e+001dB,1.65474294653337e+002°)
1.17489755493954e+002	(-4.19716842225241e+001dB,1.65457783398090e+002°)
1.17625098468473e+002	(-4.19520299841564e+001dB,1.65441253875169e+002°)
1.17760597352082e+002	(-4.19323765252736e+001dB,1.65424706066053e+002°)
1.17896252324380e+002	(-4.19127238475952e+001dB,1.65408139952207e+002°)
1.18032063565174e+002	(-4.18930719528443e+001dB,1.65391555515083e+002°)
1.18168031254479e+002	(-4.18734208427405e+001dB,1.65374952736119e+002°)
1.18304155572518e+002	(-4.18537705190174e+001dB,1.65358331596743e+002°)
1.18440436699718e+002	(-4.18341209834038e+001dB,1.65341692078365e+002°)
1.18576874816717e+002	(-4.18144722376389e+001dB,1.65325034162388e+002°)
1.18713470104361e+002	(-4.17948242834586e+001dB,1.65308357830197e+002°)
1.18850222743703e+002	(-4.17751771226093e+001dB,1.65291663063166e+002°)
1.18987132916005e+002	(-4.17555307568354e+001dB,1.65274949842656e+002°)
1.19124200802739e+002	(-4.17358851878900e+001dB,1.65258218150015e+002°)
1.19261426585583e+002	(-4.17162404175242e+001dB,1.65241467966579e+002°)
1.19398810446429e+002	(-4.16965964474977e+001dB,1.65224699273668e+002°)
1.19536352567373e+002	(-4.16769532795722e+001dB,1.65207912052593e+002°)
1.19674053130726e+002	(-4.16573109155112e+001dB,1.65191106284649e+002°)
1.19811912319005e+002	(-4.16376693570853e+001dB,1.65174281951120e+002°)
1.19949930314939e+002	(-4.16180286060693e+001dB,1.65157439033277e+002°)
1.20088107301468e+002	(-4.15983886642327e+001dB,1.65140577512375e+002°)
1.20226443461743e+002	(-4.15787495333620e+001dB,1.65123697369661e+002°)
1.20364938979123e+002	(-4.15591112152407e+001dB,1.65106798586366e+002°)
1.20503594037181e+002	(-4.15394737116508e+001dB,1.65089881143708e+002°)
1.20642408819701e+002	(-4.15198370243899e+001dB,1.65072945022895e+002°)
1.20781383510679e+002	(-4.15002011552484e+001dB,1.65055990205119e+002°)
1.20920518294322e+002	(-4.14805661060275e+001dB,1.65039016671561e+002°)
1.21059813355050e+002	(-4.14609318785285e+001dB,1.65022024403388e+002°)
1.21199268877494e+002	(-4.14412984745580e+001dB,1.65005013381755e+002°)
1.21338885046499e+002	(-4.14216658959270e+001dB,1.64987983587804e+002°)
1.21478662047124e+002	(-4.14020341444490e+001dB,1.64970935002665e+002°)
1.21618600064638e+002	(-4.13824032219399e+001dB,1.64953867607455e+002°)
1.21758699284527e+002	(-4.13627731302242e+001dB,1.64936781383277e+002°)
1.21898959892488e+002	(-4.13431438711244e+001dB,1.64919676311222e+002°)
1.22039382074433e+002	(-4.13235154464697e+001dB,1.64902552372368e+002°)
1.22179966016489e+002	(-4.13038878580938e+001dB,1.64885409547782e+002°)
1.22320711904995e+002	(-4.12842611078336e+001dB,1.64868247818517e+002°)
1.22461619926506e+002	(-4.12646351975298e+001dB,1.64851067165614e+002°)
1.22602690267794e+002	(-4.12450101290274e+001dB,1.64833867570100e+002°)
1.22743923115842e+002	(-4.12253859041703e+001dB,1.64816649012989e+002°)
1.22885318657852e+002	(-4.12057625248151e+001dB,1.64799411475285e+002°)
1.23026877081240e+002	(-4.11861399928177e+001dB,1.64782154937978e+002°)
1.23168598573637e+002	(-4.11665183100331e+001dB,1.64764879382045e+002°)
1.23310483322892e+002	(-4.11468974783298e+001dB,1.64747584788451e+002°)
1.23452531517070e+002	(-4.11272774995739e+001dB,1.64730271138148e+002°)
1.23594743344452e+002	(-4.11076583756351e+001dB,1.64712938412075e+002°)
1.23737118993537e+002	(-4.10880401083916e+001dB,1.64695586591160e+002°)
1.23879658653038e+002	(-4.10684226997201e+001dB,1.64678215656318e+002°)
1.24022362511890e+002	(-4.10488061515059e+001dB,1.64660825588452e+002°)
1.24165230759243e+002	(-4.10291904656330e+001dB,1.64643416368449e+002°)
1.24308263584464e+002	(-4.10095756439956e+001dB,1.64625987977188e+002°)
1.24451461177140e+002	(-4.09899616884847e+001dB,1.64608540395532e+002°)
1.24594823727076e+002	(-4.09703486010039e+001dB,1.64591073604336e+002°)
1.24738351424296e+002	(-4.09507363834513e+001dB,1.64573587584439e+002°)
1.24882044459041e+002	(-4.09311250377370e+001dB,1.64556082316667e+002°)
1.25025903021774e+002	(-4.09115145657694e+001dB,1.64538557781836e+002°)
1.25169927303174e+002	(-4.08919049694648e+001dB,1.64521013960750e+002°)
1.25314117494143e+002	(-4.08722962507418e+001dB,1.64503450834198e+002°)
1.25458473785801e+002	(-4.08526884115217e+001dB,1.64485868382957e+002°)
1.25602996369489e+002	(-4.08330814537316e+001dB,1.64468266587795e+002°)
1.25747685436768e+002	(-4.08134753793013e+001dB,1.64450645429464e+002°)
1.25892541179418e+002	(-4.07938701901653e+001dB,1.64433004888705e+002°)
1.26037563789444e+002	(-4.07742658882653e+001dB,1.64415344946248e+002°)
1.26182753459069e+002	(-4.07546624755393e+001dB,1.64397665582808e+002°)
1.26328110380737e+002	(-4.07350599539367e+001dB,1.64379966779091e+002°)
1.26473634747117e+002	(-4.07154583254078e+001dB,1.64362248515788e+002°)
1.26619326751096e+002	(-4.06958575919080e+001dB,1.64344510773579e+002°)
1.26765186585786e+002	(-4.06762577553936e+001dB,1.64326753533131e+002°)
1.26911214444521e+002	(-4.06566588178297e+001dB,1.64308976775101e+002°)
1.27057410520856e+002	(-4.06370607811832e+001dB,1.64291180480132e+002°)
1.27203775008571e+002	(-4.06174636474228e+001dB,1.64273364628855e+002°)
1.27350308101668e+002	(-4.05978674185257e+001dB,1.64255529201888e+002°)
1.27497009994373e+002	(-4.05782720964681e+001dB,1.64237674179839e+002°)
1.27643880881136e+002	(-4.05586776832351e+001dB,1.64219799543303e+002°)
1.27790920956630e+002	(-4.05390841808153e+001dB,1.64201905272863e+002°)
1.27938130415754e+002	(-4.05194915911986e+001dB,1.64183991349089e+002°)
1.28085509453630e+002	(-4.04998999163798e+001dB,1.64166057752541e+002°)
1.28233058265604e+002	(-4.04803091583601e+001dB,1.64148104463764e+002°)
1.28380777047249e+002	(-4.04607193191411e+001dB,1.64130131463294e+002°)
1.28528665994363e+002	(-4.04411304007331e+001dB,1.64112138731654e+002°)
1.28676725302969e+002	(-4.04215424051436e+001dB,1.64094126249353e+002°)
1.28824955169315e+002	(-4.04019553343956e+001dB,1.64076093996892e+002°)
1.28973355789877e+002	(-4.03823691905042e+001dB,1.64058041954757e+002°)
1.29121927361355e+002	(-4.03627839754961e+001dB,1.64039970103424e+002°)
1.29270670080678e+002	(-4.03431996913988e+001dB,1.64021878423354e+002°)
1.29419584145000e+002	(-4.03236163402448e+001dB,1.64003766894999e+002°)
1.29568669751704e+002	(-4.03040339240736e+001dB,1.63985635498801e+002°)
1.29717927098397e+002	(-4.02844524449246e+001dB,1.63967484215184e+002°)
1.29867356382918e+002	(-4.02648719048408e+001dB,1.63949313024566e+002°)
1.30016957803331e+002	(-4.02452923058766e+001dB,1.63931121907350e+002°)
1.30166731557928e+002	(-4.02257136500825e+001dB,1.63912910843929e+002°)
1.30316677845232e+002	(-4.02061359395177e+001dB,1.63894679814683e+002°)
1.30466796863991e+002	(-4.01865591762442e+001dB,1.63876428799981e+002°)
1.30617088813186e+002	(-4.01669833623299e+001dB,1.63858157780181e+002°)
1.30767553892024e+002	(-4.01474084998427e+001dB,1.63839866735626e+002°)
1.30918192299943e+002	(-4.01278345908589e+001dB,1.63821555646652e+002°)
1.31069004236610e+002	(-4.01082616374596e+001dB,1.63803224493580e+002°)
1.31219989901922e+002	(-4.00886896417263e+001dB,1.63784873256721e+002°)
1.31371149496008e+002	(-4.00691186057457e+001dB,1.63766501916372e+002°)
1.31522483219226e+002	(-4.00495485316147e+001dB,1.63748110452824e+002°)
1.31673991272164e+002	(-4.00299794214249e+001dB,1.63729698846349e+002°)
1.31825673855643e+002	(-4.00104112772790e+001dB,1.63711267077213e+002°)
1.31977531170714e+002	(-3.99908441012808e+001dB,1.63692815125668e+002°)
1.32129563418659e+002	(-3.99712778955425e+001dB,1.63674342971956e+002°)
1.32281770800995e+002	(-3.99517126621739e+001dB,1.63655850596305e+002°)
1.32434153519468e+002	(-3.99321484032955e+001dB,1.63637337978934e+002°)
1.32586711776058e+002	(-3.99125851210292e+001dB,1.63618805100050e+002°)
1.32739445772976e+002	(-3.98930228175024e+001dB,1.63600251939849e+002°)
1.32892355712668e+002	(-3.98734614948428e+001dB,1.63581678478513e+002°)
1.33045441797811e+002	(-3.98539011551895e+001dB,1.63563084696217e+002°)
1.33198704231318e+002	(-3.98343418006826e+001dB,1.63544470573121e+002°)
1.33352143216334e+002	(-3.98147834334621e+001dB,1.63525836089373e+002°)
1.33505758956239e+002	(-3.97952260556810e+001dB,1.63507181225115e+002°)
1.33659551654646e+002	(-3.97756696694899e+001dB,1.63488505960473e+002°)
1.33813521515404e+002	(-3.97561142770459e+001dB,1.63469810275562e+002°)
1.33967668742596e+002	(-3.97365598805111e+001dB,1.63451094150487e+002°)
1.34121993540539e+002	(-3.97170064820523e+001dB,1.63432357565343e+002°)
1.34276496113788e+002	(-3.96974540838391e+001dB,1.63413600500211e+002°)
1.34431176667133e+002	(-3.96779026880472e+001dB,1.63394822935163e+002°)
1.34586035405597e+002	(-3.96583522968563e+001dB,1.63376024850260e+002°)
1.34741072534443e+002	(-3.96388029124494e+001dB,1.63357206225549e+002°)
1.34896288259167e+002	(-3.96192545370153e+001dB,1.63338367041068e+002°)
1.35051682785506e+002	(-3.95997071727463e+001dB,1.63319507276845e+002°)
1.35207256319430e+002	(-3.95801608218416e+001dB,1.63300626912896e+002°)
1.35363009067148e+002	(-3.95606154864986e+001dB,1.63281725929224e+002°)
1.35518941235106e+002	(-3.95410711689285e+001dB,1.63262804305825e+002°)
1.35675053029988e+002	(-3.95215278713392e+001dB,1.63243862022679e+002°)
1.35831344658718e+002	(-3.95019855959474e+001dB,1.63224899059760e+002°)
1.35987816328454e+002	(-3.94824443449718e+001dB,1.63205915397029e+002°)
1.36144468246597e+002	(-3.94629041206367e+001dB,1.63186911014434e+002°)
1.36301300620785e+002	(-3.94433649251699e+001dB,1.63167885891914e+002°)
1.36458313658895e+002	(-3.94238267608061e+001dB,1.63148840009400e+002°)
1.36615507569043e+002	(-3.94042896297860e+001dB,1.63129773346808e+002°)
1.36772882559587e+002	(-3.93847535343453e+001dB,1.63110685884043e+002°)
1.36930438839123e+002	(-3.93652184767365e+001dB,1.63091577601002e+002°)
1.37088176616488e+002	(-3.93456844592096e+001dB,1.63072448477571e+002°)
1.37246096100758e+002	(-3.93261514840186e+001dB,1.63053298493623e+002°)
1.37404197501254e+002	(-3.93066195534257e+001dB,1.63034127629022e+002°)
