Freq.	V(vout)/V(vin)
1.00000000000000e+002	(-2.83526573278746e+000dB,4.83803668269360e+001°)
1.00115195553817e+002	(-2.83139363266882e+000dB,4.83349057402080e+001°)
1.00230523807790e+002	(-2.82752775782005e+000dB,4.82894710977771e+001°)
1.00345984914784e+002	(-2.82366810215871e+000dB,4.82440629204035e+001°)
1.00461579027840e+002	(-2.81981465960188e+000dB,4.81986812288288e+001°)
1.00577306300174e+002	(-2.81596742406131e+000dB,4.81533260437205e+001°)
1.00693166885180e+002	(-2.81212638943467e+000dB,4.81079973855826e+001°)
1.00809160936430e+002	(-2.80829154962633e+000dB,4.80626952749758e+001°)
1.00925288607668e+002	(-2.80446289852790e+000dB,4.80174197323072e+001°)
1.01041550052821e+002	(-2.80064043002478e+000dB,4.79721707779036e+001°)
1.01157945425990e+002	(-2.79682413800832e+000dB,4.79269484321335e+001°)
1.01274474881453e+002	(-2.79301401635200e+000dB,4.78817527151652e+001°)
1.01391138573668e+002	(-2.78921005892856e+000dB,4.78365836471372e+001°)
1.01507936657269e+002	(-2.78541225961121e+000dB,4.77914412481746e+001°)
1.01624869287070e+002	(-2.78162061226286e+000dB,4.77463255382771e+001°)
1.01741936618061e+002	(-2.77783511073879e+000dB,4.77012365373438e+001°)
1.01859138805412e+002	(-2.77405574889649e+000dB,4.76561742652781e+001°)
1.01976476004472e+002	(-2.77028252058461e+000dB,4.76111387418679e+001°)
1.02093948370768e+002	(-2.76651541964386e+000dB,4.75661299868026e+001°)
1.02211556060007e+002	(-2.76275443991963e+000dB,4.75211480197934e+001°)
1.02329299228076e+002	(-2.75899957524744e+000dB,4.74761928604301e+001°)
1.02447178031038e+002	(-2.75525081945187e+000dB,4.74312645281656e+001°)
1.02565192625141e+002	(-2.75150816636100e+000dB,4.73863630424687e+001°)
1.02683343166809e+002	(-2.74777160979614e+000dB,4.73414884227123e+001°)
1.02801629812648e+002	(-2.74404114357456e+000dB,4.72966406882066e+001°)
1.02920052719443e+002	(-2.74031676150626e+000dB,4.72518198581593e+001°)
1.03038612044162e+002	(-2.73659845740104e+000dB,4.72070259517563e+001°)
1.03157307943951e+002	(-2.73288622505560e+000dB,4.71622589880190e+001°)
1.03276140576140e+002	(-2.72918005827533e+000dB,4.71175189860351e+001°)
1.03395110098237e+002	(-2.72547995084817e+000dB,4.70728059646900e+001°)
1.03514216667935e+002	(-2.72178589656557e+000dB,4.70281199428728e+001°)
1.03633460443104e+002	(-2.71809788921514e+000dB,4.69834609394141e+001°)
1.03752841581801e+002	(-2.71441592257054e+000dB,4.69388289729678e+001°)
1.03872360242262e+002	(-2.71073999041285e+000dB,4.68942240622411e+001°)
1.03992016582906e+002	(-2.70707008651489e+000dB,4.68496462258290e+001°)
1.04111810762334e+002	(-2.70340620463868e+000dB,4.68050954821837e+001°)
1.04231742939331e+002	(-2.69974833855084e+000dB,4.67605718497807e+001°)
1.04351813272863e+002	(-2.69609648201095e+000dB,4.67160753469933e+001°)
1.04472021922080e+002	(-2.69245062877251e+000dB,4.66716059921012e+001°)
1.04592369046317e+002	(-2.68881077258477e+000dB,4.66271638033150e+001°)
1.04712854805090e+002	(-2.68517690719726e+000dB,4.65827487988154e+001°)
1.04833479358100e+002	(-2.68154902634747e+000dB,4.65383609966295e+001°)
1.04954242865233e+002	(-2.67792712377968e+000dB,4.64940004148260e+001°)
1.05075145486555e+002	(-2.67431119322416e+000dB,4.64496670712979e+001°)
1.05196187382323e+002	(-2.67070122840945e+000dB,4.64053609838875e+001°)
1.05317368712972e+002	(-2.66709722306588e+000dB,4.63610821704265e+001°)
1.05438689639126e+002	(-2.66349917091391e+000dB,4.63168306486115e+001°)
1.05560150321593e+002	(-2.65990706567083e+000dB,4.62726064360751e+001°)
1.05681750921366e+002	(-2.65632090104931e+000dB,4.62284095503712e+001°)
1.05803491599623e+002	(-2.65274067076384e+000dB,4.61842400090372e+001°)
1.05925372517729e+002	(-2.64916636851847e+000dB,4.61400978294711e+001°)
1.06047393837234e+002	(-2.64559798801841e+000dB,4.60959830290479e+001°)
1.06169555719873e+002	(-2.64203552295767e+000dB,4.60518956249971e+001°)
1.06291858327569e+002	(-2.63847896703948e+000dB,4.60078356346037e+001°)
1.06414301822432e+002	(-2.63492831394691e+000dB,4.59638030749158e+001°)
1.06536886366757e+002	(-2.63138355737248e+000dB,4.59197979630387e+001°)
1.06659612123026e+002	(-2.62784469100091e+000dB,4.58758203159653e+001°)
1.06782479253910e+002	(-2.62431170850814e+000dB,4.58318701505621e+001°)
1.06905487922266e+002	(-2.62078460357931e+000dB,4.57879474837539e+001°)
1.07028638291139e+002	(-2.61726336987834e+000dB,4.57440523322101e+001°)
1.07151930523761e+002	(-2.61374800108219e+000dB,4.57001847126978e+001°)
1.07275364783553e+002	(-2.61023849085189e+000dB,4.56563446417841e+001°)
1.07398941234125e+002	(-2.60673483285588e+000dB,4.56125321360737e+001°)
1.07522660039273e+002	(-2.60323702075062e+000dB,4.55687472120109e+001°)
1.07646521362984e+002	(-2.59974504819058e+000dB,4.55249898859799e+001°)
1.07770525369433e+002	(-2.59625890883002e+000dB,4.54812601743278e+001°)
1.07894672222983e+002	(-2.59277859631807e+000dB,4.54375580933051e+001°)
1.08018962088190e+002	(-2.58930410430224e+000dB,4.53938836591112e+001°)
1.08143395129794e+002	(-2.58583542642423e+000dB,4.53502368878426e+001°)
1.08267971512730e+002	(-2.58237255632244e+000dB,4.53066177955236e+001°)
1.08392691402121e+002	(-2.57891548763152e+000dB,4.52630263980997e+001°)
1.08517554963279e+002	(-2.57546421398767e+000dB,4.52194627114913e+001°)
1.08642562361707e+002	(-2.57201872902129e+000dB,4.51759267515182e+001°)
1.08767713763100e+002	(-2.56857902635487e+000dB,4.51324185338783e+001°)
1.08893009333344e+002	(-2.56514509961570e+000dB,4.50889380742768e+001°)
1.09018449238513e+002	(-2.56171694242270e+000dB,4.50454853882902e+001°)
1.09144033644876e+002	(-2.55829454839309e+000dB,4.50020604914359e+001°)
1.09269762718892e+002	(-2.55487791114106e+000dB,4.49586633991573e+001°)
1.09395636627210e+002	(-2.55146702428002e+000dB,4.49152941268471e+001°)
1.09521655536674e+002	(-2.54806188141703e+000dB,4.48719526897880e+001°)
1.09647819614319e+002	(-2.54466247615616e+000dB,4.48286391031912e+001°)
1.09774129027372e+002	(-2.54126880210200e+000dB,4.47853533822267e+001°)
1.09900583943253e+002	(-2.53788085285367e+000dB,4.47420955419644e+001°)
1.10027184529574e+002	(-2.53449862200850e+000dB,4.46988655974121e+001°)
1.10153930954142e+002	(-2.53112210316168e+000dB,4.46556635635090e+001°)
1.10280823384956e+002	(-2.52775128990092e+000dB,4.46124894550735e+001°)
1.10407861990208e+002	(-2.52438617581770e+000dB,4.45693432869171e+001°)
1.10535046938285e+002	(-2.52102675449876e+000dB,4.45262250737541e+001°)
1.10662378397767e+002	(-2.51767301952575e+000dB,4.44831348302038e+001°)
1.10789856537430e+002	(-2.51432496447653e+000dB,4.44400725707978e+001°)
1.10917481526241e+002	(-2.51098258293368e+000dB,4.43970383100701e+001°)
1.11045253533365e+002	(-2.50764586847120e+000dB,4.43540320624171e+001°)
1.11173172728160e+002	(-2.50431481466065e+000dB,4.43110538421647e+001°)
1.11301239280180e+002	(-2.50098941507302e+000dB,4.42681036635841e+001°)
1.11429453359174e+002	(-2.49766966327794e+000dB,4.42251815408850e+001°)
1.11557815135086e+002	(-2.49435555283610e+000dB,4.41822874881352e+001°)
1.11686324778057e+002	(-2.49104707731420e+000dB,4.41394215194164e+001°)
1.11814982458423e+002	(-2.48774423027011e+000dB,4.40965836486699e+001°)
1.11943788346716e+002	(-2.48444700526525e+000dB,4.40537738898229e+001°)
1.12072742613665e+002	(-2.48115539585360e+000dB,4.40109922566785e+001°)
1.12201845430197e+002	(-2.47786939558586e+000dB,4.39682387629534e+001°)
1.12331096967433e+002	(-2.47458899801998e+000dB,4.39255134223889e+001°)
1.12460497396693e+002	(-2.47131419669611e+000dB,4.38828162484950e+001°)
1.12590046889495e+002	(-2.46804498516714e+000dB,4.38401472548584e+001°)
1.12719745617552e+002	(-2.46478135697369e+000dB,4.37975064548879e+001°)
1.12849593752777e+002	(-2.46152330566174e+000dB,4.37548938619972e+001°)
1.12979591467281e+002	(-2.45827082477010e+000dB,4.37123094894745e+001°)
1.13109738933371e+002	(-2.45502390783504e+000dB,4.36697533505271e+001°)
1.13240036323557e+002	(-2.45178254839409e+000dB,4.36272254583262e+001°)
1.13370483810542e+002	(-2.44854673997970e+000dB,4.35847258259340e+001°)
1.13501081567232e+002	(-2.44531647612687e+000dB,4.35422544663854e+001°)
1.13631829766732e+002	(-2.44209175036224e+000dB,4.34998113925792e+001°)
1.13762728582344e+002	(-2.43887255621619e+000dB,4.34573966173954e+001°)
1.13893778187572e+002	(-2.43565888721462e+000dB,4.34150101536158e+001°)
1.14024978756118e+002	(-2.43245073687661e+000dB,4.33726520138962e+001°)
1.14156330461885e+002	(-2.42924809873349e+000dB,4.33303222109625e+001°)
1.14287833478978e+002	(-2.42605096629774e+000dB,4.32880207572932e+001°)
1.14419487981699e+002	(-2.42285933309067e+000dB,4.32457476654019e+001°)
1.14551294144554e+002	(-2.41967319263019e+000dB,4.32035029477086e+001°)
1.14683252142249e+002	(-2.41649253843148e+000dB,4.31612866165542e+001°)
1.14815362149689e+002	(-2.41331736400601e+000dB,4.31190986841802e+001°)
1.14947624341984e+002	(-2.41014766286508e+000dB,4.30769391627727e+001°)
1.15080038894444e+002	(-2.40698342852476e+000dB,4.30348080645059e+001°)
1.15212605982582e+002	(-2.40382465448490e+000dB,4.29927054013352e+001°)
1.15345325782110e+002	(-2.40067133426025e+000dB,4.29506311853059e+001°)
1.15478198468947e+002	(-2.39752346135025e+000dB,4.29085854282533e+001°)
1.15611224219211e+002	(-2.39438102925958e+000dB,4.28665681420043e+001°)
1.15744403209225e+002	(-2.39124403149355e+000dB,4.28245793383345e+001°)
1.15877735615514e+002	(-2.38811246155199e+000dB,4.27826190289053e+001°)
1.16011221614806e+002	(-2.38498631293227e+000dB,4.27406872252931e+001°)
1.16144861384035e+002	(-2.38186557913428e+000dB,4.26987839390400e+001°)
1.16278655100336e+002	(-2.37875025365338e+000dB,4.26569091815832e+001°)
1.16412602941050e+002	(-2.37564032998499e+000dB,4.26150629642990e+001°)
1.16546705083721e+002	(-2.37253580162232e+000dB,4.25732452984818e+001°)
1.16680961706097e+002	(-2.36943666206149e+000dB,4.25314561953946e+001°)
1.16815372986133e+002	(-2.36634290478992e+000dB,4.24896956661496e+001°)
1.16949939101988e+002	(-2.36325452329872e+000dB,4.24479637218364e+001°)
1.17084660232025e+002	(-2.36017151107734e+000dB,4.24062603734660e+001°)
1.17219536554814e+002	(-2.35709386161439e+000dB,4.23645856319788e+001°)
1.17354568249130e+002	(-2.35402156839430e+000dB,4.23229395082103e+001°)
1.17489755493954e+002	(-2.35095462490230e+000dB,4.22813220129412e+001°)
1.17625098468473e+002	(-2.34789302462573e+000dB,4.22397331569118e+001°)
1.17760597352082e+002	(-2.34483676104617e+000dB,4.21981729507393e+001°)
1.17896252324380e+002	(-2.34178582764460e+000dB,4.21566414049741e+001°)
1.18032063565174e+002	(-2.33874021790563e+000dB,4.21151385301360e+001°)
1.18168031254479e+002	(-2.33569992530443e+000dB,4.20736643365889e+001°)
1.18304155572518e+002	(-2.33266494332674e+000dB,4.20322188347375e+001°)
1.18440436699718e+002	(-2.32963526544664e+000dB,4.19908020348043e+001°)
1.18576874816717e+002	(-2.32661088514402e+000dB,4.19494139470055e+001°)
1.18713470104361e+002	(-2.32359179589344e+000dB,4.19080545814395e+001°)
1.18850222743703e+002	(-2.32057799117215e+000dB,4.18667239481650e+001°)
1.18987132916005e+002	(-2.31756946445300e+000dB,4.18254220571318e+001°)
1.19124200802739e+002	(-2.31456620921659e+000dB,4.17841489183003e+001°)
1.19261426585583e+002	(-2.31156821893013e+000dB,4.17429045414332e+001°)
1.19398810446429e+002	(-2.30857548706758e+000dB,4.17016889362913e+001°)
1.19536352567373e+002	(-2.30558800710506e+000dB,4.16605021125926e+001°)
1.19674053130726e+002	(-2.30260577251174e+000dB,4.16193440799159e+001°)
1.19811912319005e+002	(-2.29962877675697e+000dB,4.15782148477780e+001°)
1.19949930314939e+002	(-2.29665701331239e+000dB,4.15371144256484e+001°)
1.20088107301468e+002	(-2.29369047564826e+000dB,4.14960428229152e+001°)
1.20226443461743e+002	(-2.29072915723496e+000dB,4.14550000489004e+001°)
1.20364938979123e+002	(-2.28777305153884e+000dB,4.14139861128187e+001°)
1.20503594037181e+002	(-2.28482215202971e+000dB,4.13730010238476e+001°)
1.20642408819701e+002	(-2.28187645217554e+000dB,4.13320447910801e+001°)
1.20781383510679e+002	(-2.27893594544634e+000dB,4.12911174235595e+001°)
1.20920518294322e+002	(-2.27600062530265e+000dB,4.12502189301642e+001°)
1.21059813355050e+002	(-2.27307048521635e+000dB,4.12093493198205e+001°)
1.21199268877494e+002	(-2.27014551865410e+000dB,4.11685086013256e+001°)
1.21338885046499e+002	(-2.26722571907813e+000dB,4.11276967833692e+001°)
1.21478662047124e+002	(-2.26431107995833e+000dB,4.10869138746431e+001°)
1.21618600064638e+002	(-2.26140159475962e+000dB,4.10461598837198e+001°)
1.21758699284527e+002	(-2.25849725694340e+000dB,4.10054348190667e+001°)
1.21898959892488e+002	(-2.25559805997995e+000dB,4.09647386891694e+001°)
1.22039382074433e+002	(-2.25270399733335e+000dB,4.09240715023763e+001°)
1.22179966016489e+002	(-2.24981506246459e+000dB,4.08834332669403e+001°)
1.22320711904995e+002	(-2.24693124884335e+000dB,4.08428239911210e+001°)
1.22461619926506e+002	(-2.24405254993377e+000dB,4.08022436830572e+001°)
1.22602690267794e+002	(-2.24117895919616e+000dB,4.07616923507745e+001°)
1.22743923115842e+002	(-2.23831047010041e+000dB,4.07211700023211e+001°)
1.22885318657852e+002	(-2.23544707610961e+000dB,4.06806766456068e+001°)
1.23026877081240e+002	(-2.23258877068538e+000dB,4.06402122884509e+001°)
1.23168598573637e+002	(-2.22973554729829e+000dB,4.05997769386912e+001°)
1.23310483322892e+002	(-2.22688739940795e+000dB,4.05593706039823e+001°)
1.23452531517070e+002	(-2.22404432048445e+000dB,4.05189932920055e+001°)
1.23594743344452e+002	(-2.22120630398763e+000dB,4.04786450102747e+001°)
1.23737118993537e+002	(-2.21837334338647e+000dB,4.04383257663115e+001°)
1.23879658653038e+002	(-2.21554543214632e+000dB,4.03980355675324e+001°)
1.24022362511890e+002	(-2.21272256373097e+000dB,4.03577744212627e+001°)
1.24165230759243e+002	(-2.20990473160754e+000dB,4.03175423347846e+001°)
1.24308263584464e+002	(-2.20709192924491e+000dB,4.02773393153244e+001°)
1.24451461177140e+002	(-2.20428415010605e+000dB,4.02371653699731e+001°)
1.24594823727076e+002	(-2.20148138765799e+000dB,4.01970205057880e+001°)
1.24738351424296e+002	(-2.19868363537288e+000dB,4.01569047297992e+001°)
1.24882044459041e+002	(-2.19589088671218e+000dB,4.01168180488582e+001°)
1.25025903021774e+002	(-2.19310313514965e+000dB,4.00767604698580e+001°)
1.25169927303174e+002	(-2.19032037415194e+000dB,4.00367319995475e+001°)
1.25314117494143e+002	(-2.18754259718561e+000dB,3.99967326445993e+001°)
1.25458473785801e+002	(-2.18476979772587e+000dB,3.99567624116900e+001°)
1.25602996369489e+002	(-2.18200196923753e+000dB,3.99168213073219e+001°)
1.25747685436768e+002	(-2.17923910519543e+000dB,3.98769093380160e+001°)
1.25892541179418e+002	(-2.17648119906825e+000dB,3.98370265101545e+001°)
1.26037563789444e+002	(-2.17372824432828e+000dB,3.97971728300800e+001°)
1.26182753459069e+002	(-2.17098023445282e+000dB,3.97573483041037e+001°)
1.26328110380737e+002	(-2.16823716290958e+000dB,3.97175529383671e+001°)
1.26473634747117e+002	(-2.16549902317329e+000dB,3.96777867390018e+001°)
1.26619326751096e+002	(-2.16276580872131e+000dB,3.96380497120836e+001°)
1.26765186585786e+002	(-2.16003751302685e+000dB,3.95983418635746e+001°)
1.26911214444521e+002	(-2.15731412956955e+000dB,3.95586631994155e+001°)
1.27057410520856e+002	(-2.15459565182274e+000dB,3.95190137254090e+001°)
1.27203775008571e+002	(-2.15188207326652e+000dB,3.94793934473450e+001°)
1.27350308101668e+002	(-2.14917338737990e+000dB,3.94398023709224e+001°)
1.27497009994373e+002	(-2.14646958764302e+000dB,3.94002405017705e+001°)
1.27643880881136e+002	(-2.14377066753402e+000dB,3.93607078454228e+001°)
1.27790920956630e+002	(-2.14107662053603e+000dB,3.93212044073773e+001°)
1.27938130415754e+002	(-2.13838744013194e+000dB,3.92817301930515e+001°)
1.28085509453630e+002	(-2.13570311980609e+000dB,3.92422852077960e+001°)
1.28233058265604e+002	(-2.13302365304158e+000dB,3.92028694568697e+001°)
1.28380777047249e+002	(-2.13034903332453e+000dB,3.91634829454798e+001°)
1.28528665994363e+002	(-2.12767925414234e+000dB,3.91241256787625e+001°)
1.28676725302969e+002	(-2.12501430898323e+000dB,3.90847976617848e+001°)
1.28824955169315e+002	(-2.12235419133416e+000dB,3.90454988995185e+001°)
1.28973355789877e+002	(-2.11969889468512e+000dB,3.90062293968809e+001°)
1.29121927361355e+002	(-2.11704841253108e+000dB,3.89669891587605e+001°)
1.29270670080678e+002	(-2.11440273836109e+000dB,3.89277781899023e+001°)
1.29419584145000e+002	(-2.11176186566964e+000dB,3.88885964950249e+001°)
1.29568669751704e+002	(-2.10912578795188e+000dB,3.88494440787690e+001°)
1.29717927098397e+002	(-2.10649449870616e+000dB,3.88103209457250e+001°)
1.29867356382918e+002	(-2.10386799142685e+000dB,3.87712271003622e+001°)
1.30016957803331e+002	(-2.10124625961383e+000dB,3.87321625471206e+001°)
1.30166731557928e+002	(-2.09862929676809e+000dB,3.86931272903660e+001°)
1.30316677845232e+002	(-2.09601709639206e+000dB,3.86541213343976e+001°)
1.30466796863991e+002	(-2.09340965198542e+000dB,3.86151446834042e+001°)
1.30617088813186e+002	(-2.09080695705705e+000dB,3.85761973415798e+001°)
1.30767553892024e+002	(-2.08820900511140e+000dB,3.85372793129908e+001°)
1.30918192299943e+002	(-2.08561578965620e+000dB,3.84983906016530e+001°)
1.31069004236610e+002	(-2.08302730419818e+000dB,3.84595312114881e+001°)
1.31219989901922e+002	(-2.08044354225042e+000dB,3.84207011463946e+001°)
1.31371149496008e+002	(-2.07786449732446e+000dB,3.83819004101722e+001°)
1.31522483219226e+002	(-2.07529016293373e+000dB,3.83431290065545e+001°)
1.31673991272164e+002	(-2.07272053259357e+000dB,3.83043869392099e+001°)
1.31825673855643e+002	(-2.07015559982046e+000dB,3.82656742117298e+001°)
1.31977531170714e+002	(-2.06759535813412e+000dB,3.82269908276549e+001°)
1.32129563418659e+002	(-2.06503980105591e+000dB,3.81883367904566e+001°)
1.32281770800995e+002	(-2.06248892210325e+000dB,3.81497121034816e+001°)
1.32434153519468e+002	(-2.05994271480463e+000dB,3.81111167700978e+001°)
1.32586711776058e+002	(-2.05740117268451e+000dB,3.80725507935497e+001°)
1.32739445772976e+002	(-2.05486428926745e+000dB,3.80340141769976e+001°)
1.32892355712668e+002	(-2.05233205808830e+000dB,3.79955069236126e+001°)
1.33045441797811e+002	(-2.04980447267296e+000dB,3.79570290363952e+001°)
1.33198704231318e+002	(-2.04728152655413e+000dB,3.79185805183270e+001°)
1.33352143216334e+002	(-2.04476321327010e+000dB,3.78801613723524e+001°)
1.33505758956239e+002	(-2.04224952635610e+000dB,3.78417716013045e+001°)
1.33659551654646e+002	(-2.03974045934981e+000dB,3.78034112079502e+001°)
1.33813521515404e+002	(-2.03723600579286e+000dB,3.77650801950086e+001°)
1.33967668742596e+002	(-2.03473615922649e+000dB,3.77267785651098e+001°)
1.34121993540539e+002	(-2.03224091319658e+000dB,3.76885063208379e+001°)
1.34276496113788e+002	(-2.02975026124997e+000dB,3.76502634647017e+001°)
1.34431176667133e+002	(-2.02726419693405e+000dB,3.76120499991288e+001°)
1.34586035405597e+002	(-2.02478271379868e+000dB,3.75738659264794e+001°)
1.34741072534443e+002	(-2.02230580539933e+000dB,3.75357112490838e+001°)
1.34896288259167e+002	(-2.01983346529097e+000dB,3.74975859691754e+001°)
1.35051682785506e+002	(-2.01736568702806e+000dB,3.74594900888977e+001°)
1.35207256319430e+002	(-2.01490246417124e+000dB,3.74214236103673e+001°)
1.35363009067148e+002	(-2.01244379028284e+000dB,3.73833865356246e+001°)
1.35518941235106e+002	(-2.00998965892441e+000dB,3.73453788666170e+001°)
1.35675053029988e+002	(-2.00754006366490e+000dB,3.73074006052728e+001°)
1.35831344658718e+002	(-2.00509499807040e+000dB,3.72694517534046e+001°)
1.35987816328454e+002	(-2.00265445571310e+000dB,3.72315323127953e+001°)
1.36144468246597e+002	(-2.00021843016118e+000dB,3.71936422851013e+001°)
1.36301300620785e+002	(-1.99778691499703e+000dB,3.71557816720247e+001°)
1.36458313658895e+002	(-1.99535990379372e+000dB,3.71179504750880e+001°)
1.36615507569043e+002	(-1.99293739013173e+000dB,3.70801486957993e+001°)
1.36772882559587e+002	(-1.99051936759282e+000dB,3.70423763355868e+001°)
1.36930438839123e+002	(-1.98810582976308e+000dB,3.70046333958299e+001°)
1.37088176616488e+002	(-1.98569677022947e+000dB,3.69669198778292e+001°)
1.37246096100758e+002	(-1.98329218258295e+000dB,3.69292357828320e+001°)
1.37404197501254e+002	(-1.98089206041325e+000dB,3.68915811119846e+001°)
