Freq.	V(n002)/I(I1)
1.00000000000000e+002	(7.61755168581250e+001dB,-1.30825013728655e-003°)
1.00115195553817e+002	(7.61755168418098e+001dB,-1.30974211798667e-003°)
1.00230523807790e+002	(7.61755168254584e+001dB,-1.31123576659998e-003°)
1.00345984914784e+002	(7.61755168090707e+001dB,-1.31273108488050e-003°)
1.00461579027840e+002	(7.61755167926467e+001dB,-1.31422807457324e-003°)
1.00577306300174e+002	(7.61755167761863e+001dB,-1.31572673744412e-003°)
1.00693166885180e+002	(7.61755167596893e+001dB,-1.31722707524522e-003°)
1.00809160936430e+002	(7.61755167431559e+001dB,-1.31872908973944e-003°)
1.00925288607668e+002	(7.61755167265859e+001dB,-1.32023278268088e-003°)
1.01041550052821e+002	(7.61755167099791e+001dB,-1.32173815583949e-003°)
1.01157945425990e+002	(7.61755166933357e+001dB,-1.32324521098131e-003°)
1.01274474881453e+002	(7.61755166766552e+001dB,-1.32475394985347e-003°)
1.01391138573668e+002	(7.61755166599380e+001dB,-1.32626437423880e-003°)
1.01507936657269e+002	(7.61755166431834e+001dB,-1.32777648590161e-003°)
1.01624869287070e+002	(7.61755166263920e+001dB,-1.32929028660664e-003°)
1.01741936618061e+002	(7.61755166095633e+001dB,-1.33080577813520e-003°)
1.01859138805412e+002	(7.61755165926976e+001dB,-1.33232296224905e-003°)
1.01976476004472e+002	(7.61755165757944e+001dB,-1.33384184072649e-003°)
1.02093948370768e+002	(7.61755165588537e+001dB,-1.33536241534652e-003°)
1.02211556060007e+002	(7.61755165418757e+001dB,-1.33688468787905e-003°)
1.02329299228076e+002	(7.61755165248599e+001dB,-1.33840866011038e-003°)
1.02447178031038e+002	(7.61755165078066e+001dB,-1.33993433381232e-003°)
1.02565192625141e+002	(7.61755164907157e+001dB,-1.34146171076800e-003°)
1.02683343166809e+002	(7.61755164735867e+001dB,-1.34299079276156e-003°)
1.02801629812648e+002	(7.61755164564200e+001dB,-1.34452158158287e-003°)
1.02920052719443e+002	(7.61755164392151e+001dB,-1.34605407900826e-003°)
1.03038612044162e+002	(7.61755164219725e+001dB,-1.34758828682935e-003°)
1.03157307943951e+002	(7.61755164046915e+001dB,-1.34912420683458e-003°)
1.03276140576140e+002	(7.61755163873726e+001dB,-1.35066184081266e-003°)
1.03395110098237e+002	(7.61755163700150e+001dB,-1.35220119055894e-003°)
1.03514216667935e+002	(7.61755163526192e+001dB,-1.35374225786424e-003°)
1.03633460443104e+002	(7.61755163351851e+001dB,-1.35528504452553e-003°)
1.03752841581801e+002	(7.61755163177124e+001dB,-1.35682955233594e-003°)
1.03872360242262e+002	(7.61755163002009e+001dB,-1.35837578308950e-003°)
1.03992016582906e+002	(7.61755162826508e+001dB,-1.35992373859612e-003°)
1.04111810762334e+002	(7.61755162650619e+001dB,-1.36147342064683e-003°)
1.04231742939331e+002	(7.61755162474343e+001dB,-1.36302483104351e-003°)
1.04351813272863e+002	(7.61755162297676e+001dB,-1.36457797159930e-003°)
1.04472021922080e+002	(7.61755162120619e+001dB,-1.36613284410803e-003°)
1.04592369046317e+002	(7.61755161943170e+001dB,-1.36768945038473e-003°)
1.04712854805090e+002	(7.61755161765331e+001dB,-1.36924779223019e-003°)
1.04833479358100e+002	(7.61755161587098e+001dB,-1.37080787146148e-003°)
1.04954242865233e+002	(7.61755161408472e+001dB,-1.37236968988149e-003°)
1.05075145486555e+002	(7.61755161229451e+001dB,-1.37393324930904e-003°)
1.05196187382323e+002	(7.61755161050036e+001dB,-1.37549855155409e-003°)
1.05317368712972e+002	(7.61755160870224e+001dB,-1.37706559843245e-003°)
1.05438689639126e+002	(7.61755160690017e+001dB,-1.37863439176595e-003°)
1.05560150321593e+002	(7.61755160509408e+001dB,-1.38020493336759e-003°)
1.05681750921366e+002	(7.61755160328403e+001dB,-1.38177722505603e-003°)
1.05803491599623e+002	(7.61755160146998e+001dB,-1.38335126865610e-003°)
1.05925372517729e+002	(7.61755159965193e+001dB,-1.38492706599356e-003°)
1.06047393837234e+002	(7.61755159782988e+001dB,-1.38650461888515e-003°)
1.06169555719873e+002	(7.61755159600379e+001dB,-1.38808392915883e-003°)
1.06291858327569e+002	(7.61755159417369e+001dB,-1.38966499864298e-003°)
1.06414301822432e+002	(7.61755159233956e+001dB,-1.39124782916747e-003°)
1.06536886366757e+002	(7.61755159050138e+001dB,-1.39283242256300e-003°)
1.06659612123026e+002	(7.61755158865914e+001dB,-1.39441878065620e-003°)
1.06782479253910e+002	(7.61755158681282e+001dB,-1.39600690528481e-003°)
1.06905487922266e+002	(7.61755158496244e+001dB,-1.39759679828728e-003°)
1.07028638291139e+002	(7.61755158310801e+001dB,-1.39918846148307e-003°)
1.07151930523761e+002	(7.61755158124946e+001dB,-1.40078189672812e-003°)
1.07275364783553e+002	(7.61755157938684e+001dB,-1.40237710585352e-003°)
1.07398941234125e+002	(7.61755157752010e+001dB,-1.40397409069716e-003°)
1.07522660039273e+002	(7.61755157564925e+001dB,-1.40557285310732e-003°)
1.07646521362984e+002	(7.61755157377427e+001dB,-1.40717339492841e-003°)
1.07770525369433e+002	(7.61755157189516e+001dB,-1.40877571799596e-003°)
1.07894672222983e+002	(7.61755157001192e+001dB,-1.41037982416626e-003°)
1.08018962088190e+002	(7.61755156812454e+001dB,-1.41198571527660e-003°)
1.08143395129794e+002	(7.61755156623299e+001dB,-1.41359339319048e-003°)
1.08267971512730e+002	(7.61755156433727e+001dB,-1.41520285974212e-003°)
1.08392691402121e+002	(7.61755156243740e+001dB,-1.41681411679662e-003°)
1.08517554963279e+002	(7.61755156053331e+001dB,-1.41842716620552e-003°)
1.08642562361707e+002	(7.61755155862505e+001dB,-1.42004200982070e-003°)
1.08767713763100e+002	(7.61755155671259e+001dB,-1.42165864950039e-003°)
1.08893009333344e+002	(7.61755155479593e+001dB,-1.42327708710366e-003°)
1.09018449238513e+002	(7.61755155287503e+001dB,-1.42489732448576e-003°)
1.09144033644876e+002	(7.61755155094991e+001dB,-1.42651936351258e-003°)
1.09269762718892e+002	(7.61755154902056e+001dB,-1.42814320604608e-003°)
1.09395636627210e+002	(7.61755154708696e+001dB,-1.42976885394925e-003°)
1.09521655536674e+002	(7.61755154514912e+001dB,-1.43139630909096e-003°)
1.09647819614319e+002	(7.61755154320701e+001dB,-1.43302557333114e-003°)
1.09774129027372e+002	(7.61755154126063e+001dB,-1.43465664855064e-003°)
1.09900583943253e+002	(7.61755153930997e+001dB,-1.43628953660116e-003°)
1.10027184529574e+002	(7.61755153735502e+001dB,-1.43792423937037e-003°)
1.10153930954142e+002	(7.61755153539577e+001dB,-1.43956075871716e-003°)
1.10280823384956e+002	(7.61755153343220e+001dB,-1.44119909653106e-003°)
1.10407861990208e+002	(7.61755153146435e+001dB,-1.44283925467754e-003°)
1.10535046938285e+002	(7.61755152949215e+001dB,-1.44448123503834e-003°)
1.10662378397767e+002	(7.61755152751560e+001dB,-1.44612503949092e-003°)
1.10789856537430e+002	(7.61755152553474e+001dB,-1.44777066991352e-003°)
1.10917481526241e+002	(7.61755152354951e+001dB,-1.44941812819081e-003°)
1.11045253533365e+002	(7.61755152155993e+001dB,-1.45106741620790e-003°)
1.11173172728160e+002	(7.61755151956596e+001dB,-1.45271853584125e-003°)
1.11301239280180e+002	(7.61755151756765e+001dB,-1.45437148898786e-003°)
1.11429453359174e+002	(7.61755151556490e+001dB,-1.45602627752625e-003°)
1.11557815135086e+002	(7.61755151355777e+001dB,-1.45768290335030e-003°)
1.11686324778057e+002	(7.61755151154625e+001dB,-1.45934136835003e-003°)
1.11814982458423e+002	(7.61755150953030e+001dB,-1.46100167441656e-003°)
1.11943788346716e+002	(7.61755150750993e+001dB,-1.46266382344173e-003°)
1.12072742613665e+002	(7.61755150548512e+001dB,-1.46432781732354e-003°)
1.12201845430197e+002	(7.61755150345587e+001dB,-1.46599365795573e-003°)
1.12331096967433e+002	(7.61755150142218e+001dB,-1.46766134723801e-003°)
1.12460497396693e+002	(7.61755149938402e+001dB,-1.46933088706619e-003°)
1.12590046889495e+002	(7.61755149734137e+001dB,-1.47100227935194e-003°)
1.12719745617552e+002	(7.61755149529426e+001dB,-1.47267552598259e-003°)
1.12849593752777e+002	(7.61755149324265e+001dB,-1.47435062887186e-003°)
1.12979591467281e+002	(7.61755149118654e+001dB,-1.47602758991907e-003°)
1.13109738933371e+002	(7.61755148912593e+001dB,-1.47770641103956e-003°)
1.13240036323557e+002	(7.61755148706080e+001dB,-1.47938709412969e-003°)
1.13370483810542e+002	(7.61755148499113e+001dB,-1.48106964110670e-003°)
1.13501081567232e+002	(7.61755148291694e+001dB,-1.48275405387859e-003°)
1.13631829766732e+002	(7.61755148083820e+001dB,-1.48444033435960e-003°)
1.13762728582344e+002	(7.61755147875490e+001dB,-1.48612848446462e-003°)
1.13893778187572e+002	(7.61755147666703e+001dB,-1.48781850611469e-003°)
1.14024978756118e+002	(7.61755147457460e+001dB,-1.48951040120647e-003°)
1.14156330461885e+002	(7.61755147247756e+001dB,-1.49120417167799e-003°)
1.14287833478978e+002	(7.61755147037595e+001dB,-1.49289981943768e-003°)
1.14419487981699e+002	(7.61755146826974e+001dB,-1.49459734641530e-003°)
1.14551294144554e+002	(7.61755146615890e+001dB,-1.49629675453138e-003°)
1.14683252142249e+002	(7.61755146404345e+001dB,-1.49799804570731e-003°)
1.14815362149689e+002	(7.61755146192337e+001dB,-1.49970122186547e-003°)
1.14947624341984e+002	(7.61755145979864e+001dB,-1.50140628494419e-003°)
1.15080038894444e+002	(7.61755145766926e+001dB,-1.50311323685759e-003°)
1.15212605982582e+002	(7.61755145553522e+001dB,-1.50482207954590e-003°)
1.15345325782110e+002	(7.61755145339650e+001dB,-1.50653281494511e-003°)
1.15478198468947e+002	(7.61755145125312e+001dB,-1.50824544496703e-003°)
1.15611224219211e+002	(7.61755144910504e+001dB,-1.50995997156461e-003°)
1.15744403209225e+002	(7.61755144695225e+001dB,-1.51167639667160e-003°)
1.15877735615514e+002	(7.61755144479476e+001dB,-1.51339472222263e-003°)
1.16011221614806e+002	(7.61755144263257e+001dB,-1.51511495015317e-003°)
1.16144861384035e+002	(7.61755144046564e+001dB,-1.51683708240494e-003°)
1.16278655100336e+002	(7.61755143829395e+001dB,-1.51856112092520e-003°)
1.16412602941050e+002	(7.61755143611753e+001dB,-1.52028706764714e-003°)
1.16546705083721e+002	(7.61755143393635e+001dB,-1.52201492452503e-003°)
1.16680961706097e+002	(7.61755143175041e+001dB,-1.52374469349895e-003°)
1.16815372986133e+002	(7.61755142955970e+001dB,-1.52547637651971e-003°)
1.16949939101988e+002	(7.61755142736417e+001dB,-1.52720997552955e-003°)
1.17084660232025e+002	(7.61755142516387e+001dB,-1.52894549248592e-003°)
1.17219536554814e+002	(7.61755142295874e+001dB,-1.53068292933772e-003°)
1.17354568249130e+002	(7.61755142074881e+001dB,-1.53242228803928e-003°)
1.17489755493954e+002	(7.61755141853405e+001dB,-1.53416357054115e-003°)
1.17625098468473e+002	(7.61755141631445e+001dB,-1.53590677880971e-003°)
1.17760597352082e+002	(7.61755141409001e+001dB,-1.53765191478225e-003°)
1.17896252324380e+002	(7.61755141186070e+001dB,-1.53939898043684e-003°)
1.18032063565174e+002	(7.61755140962653e+001dB,-1.54114797772745e-003°)
1.18168031254479e+002	(7.61755140738749e+001dB,-1.54289890861900e-003°)
1.18304155572518e+002	(7.61755140514358e+001dB,-1.54465177506716e-003°)
1.18440436699718e+002	(7.61755140289475e+001dB,-1.54640657904389e-003°)
1.18576874816717e+002	(7.61755140064101e+001dB,-1.54816332251165e-003°)
1.18713470104361e+002	(7.61755139838236e+001dB,-1.54992200744374e-003°)
1.18850222743703e+002	(7.61755139611879e+001dB,-1.55168263579950e-003°)
1.18987132916005e+002	(7.61755139385025e+001dB,-1.55344520955428e-003°)
1.19124200802739e+002	(7.61755139157680e+001dB,-1.55520973067889e-003°)
1.19261426585583e+002	(7.61755138929837e+001dB,-1.55697620115054e-003°)
1.19398810446429e+002	(7.61755138701498e+001dB,-1.55874462293683e-003°)
1.19536352567373e+002	(7.61755138472661e+001dB,-1.56051499802160e-003°)
1.19674053130726e+002	(7.61755138243325e+001dB,-1.56228732837935e-003°)
1.19811912319005e+002	(7.61755138013490e+001dB,-1.56406161598543e-003°)
1.19949930314939e+002	(7.61755137783153e+001dB,-1.56583786282634e-003°)
1.20088107301468e+002	(7.61755137552316e+001dB,-1.56761607088398e-003°)
1.20226443461743e+002	(7.61755137320975e+001dB,-1.56939624213166e-003°)
1.20364938979123e+002	(7.61755137089129e+001dB,-1.57117837856816e-003°)
1.20503594037181e+002	(7.61755136856779e+001dB,-1.57296248216816e-003°)
1.20642408819701e+002	(7.61755136623924e+001dB,-1.57474855492737e-003°)
1.20781383510679e+002	(7.61755136390561e+001dB,-1.57653659883223e-003°)
1.20920518294322e+002	(7.61755136156691e+001dB,-1.57832661587010e-003°)
1.21059813355050e+002	(7.61755135922310e+001dB,-1.58011860803432e-003°)
1.21199268877494e+002	(7.61755135687418e+001dB,-1.58191257732379e-003°)
1.21338885046499e+002	(7.61755135452018e+001dB,-1.58370852572330e-003°)
1.21478662047124e+002	(7.61755135216103e+001dB,-1.58550645523887e-003°)
1.21618600064638e+002	(7.61755134979676e+001dB,-1.58730636786198e-003°)
1.21758699284527e+002	(7.61755134742735e+001dB,-1.58910826559504e-003°)
1.21898959892488e+002	(7.61755134505278e+001dB,-1.59091215043148e-003°)
1.22039382074433e+002	(7.61755134267303e+001dB,-1.59271802438042e-003°)
1.22179966016489e+002	(7.61755134028814e+001dB,-1.59452588944673e-003°)
1.22320711904995e+002	(7.61755133789804e+001dB,-1.59633574762653e-003°)
1.22461619926506e+002	(7.61755133550275e+001dB,-1.59814760093622e-003°)
1.22602690267794e+002	(7.61755133310226e+001dB,-1.59996145137343e-003°)
1.22743923115842e+002	(7.61755133069654e+001dB,-1.60177730095170e-003°)
1.22885318657852e+002	(7.61755132828560e+001dB,-1.60359515168499e-003°)
1.23026877081240e+002	(7.61755132586941e+001dB,-1.60541500557853e-003°)
1.23168598573637e+002	(7.61755132344798e+001dB,-1.60723686464800e-003°)
1.23310483322892e+002	(7.61755132102129e+001dB,-1.60906073091025e-003°)
1.23452531517070e+002	(7.61755131858933e+001dB,-1.61088660637778e-003°)
1.23594743344452e+002	(7.61755131615209e+001dB,-1.61271449306898e-003°)
1.23737118993537e+002	(7.61755131370955e+001dB,-1.61454439300305e-003°)
1.23879658653038e+002	(7.61755131126172e+001dB,-1.61637630820489e-003°)
1.24022362511890e+002	(7.61755130880857e+001dB,-1.61821024069054e-003°)
1.24165230759243e+002	(7.61755130635008e+001dB,-1.62004619247663e-003°)
1.24308263584464e+002	(7.61755130388628e+001dB,-1.62188416560052e-003°)
1.24451461177140e+002	(7.61755130141712e+001dB,-1.62372416208068e-003°)
1.24594823727076e+002	(7.61755129894259e+001dB,-1.62556618395124e-003°)
1.24738351424296e+002	(7.61755129646273e+001dB,-1.62741023323680e-003°)
1.24882044459041e+002	(7.61755129397746e+001dB,-1.62925631195865e-003°)
1.25025903021774e+002	(7.61755129148680e+001dB,-1.63110442215814e-003°)
1.25169927303174e+002	(7.61755128899076e+001dB,-1.63295456586753e-003°)
1.25314117494143e+002	(7.61755128648930e+001dB,-1.63480674512011e-003°)
1.25458473785801e+002	(7.61755128398242e+001dB,-1.63666096194994e-003°)
1.25602996369489e+002	(7.61755128147009e+001dB,-1.63851721839190e-003°)
1.25747685436768e+002	(7.61755127895233e+001dB,-1.64037551649137e-003°)
1.25892541179418e+002	(7.61755127642911e+001dB,-1.64223585828997e-003°)
1.26037563789444e+002	(7.61755127390041e+001dB,-1.64409824581496e-003°)
1.26182753459069e+002	(7.61755127136624e+001dB,-1.64596268111918e-003°)
1.26328110380737e+002	(7.61755126882661e+001dB,-1.64782916624638e-003°)
1.26473634747117e+002	(7.61755126628145e+001dB,-1.64969770323650e-003°)
1.26619326751096e+002	(7.61755126373080e+001dB,-1.65156829414470e-003°)
1.26765186585786e+002	(7.61755126117461e+001dB,-1.65344094101232e-003°)
1.26911214444521e+002	(7.61755125861289e+001dB,-1.65531564589634e-003°)
1.27057410520856e+002	(7.61755125604563e+001dB,-1.65719241083442e-003°)
1.27203775008571e+002	(7.61755125347281e+001dB,-1.65907123789522e-003°)
1.27350308101668e+002	(7.61755125089441e+001dB,-1.66095212911823e-003°)
1.27497009994373e+002	(7.61755124831046e+001dB,-1.66283508656825e-003°)
1.27643880881136e+002	(7.61755124572091e+001dB,-1.66472011229645e-003°)
1.27790920956630e+002	(7.61755124312575e+001dB,-1.66660720835953e-003°)
1.27938130415754e+002	(7.61755124052499e+001dB,-1.66849637682495e-003°)
1.28085509453630e+002	(7.61755123791861e+001dB,-1.67038761974588e-003°)
1.28233058265604e+002	(7.61755123530656e+001dB,-1.67228093918654e-003°)
1.28380777047249e+002	(7.61755123268891e+001dB,-1.67417633720646e-003°)
1.28528665994363e+002	(7.61755123006559e+001dB,-1.67607381587634e-003°)
1.28676725302969e+002	(7.61755122743659e+001dB,-1.67797337726270e-003°)
1.28824955169315e+002	(7.61755122480191e+001dB,-1.67987502342747e-003°)
1.28973355789877e+002	(7.61755122216155e+001dB,-1.68177875644349e-003°)
1.29121927361355e+002	(7.61755121951549e+001dB,-1.68368457837948e-003°)
1.29270670080678e+002	(7.61755121686372e+001dB,-1.68559249130482e-003°)
1.29419584145000e+002	(7.61755121420618e+001dB,-1.68750249729993e-003°)
1.29568669751704e+002	(7.61755121154295e+001dB,-1.68941459843014e-003°)
1.29717927098397e+002	(7.61755120887397e+001dB,-1.69132879677755e-003°)
1.29867356382918e+002	(7.61755120619919e+001dB,-1.69324509441476e-003°)
1.30016957803331e+002	(7.61755120351867e+001dB,-1.69516349341946e-003°)
1.30166731557928e+002	(7.61755120083238e+001dB,-1.69708399588079e-003°)
1.30316677845232e+002	(7.61755119814028e+001dB,-1.69900660386851e-003°)
1.30466796863991e+002	(7.61755119544235e+001dB,-1.70093131947315e-003°)
1.30617088813186e+002	(7.61755119273863e+001dB,-1.70285814477060e-003°)
1.30767553892024e+002	(7.61755119002907e+001dB,-1.70478708185296e-003°)
1.30918192299943e+002	(7.61755118731367e+001dB,-1.70671813280773e-003°)
1.31069004236610e+002	(7.61755118459242e+001dB,-1.70865129971351e-003°)
1.31219989901922e+002	(7.61755118186529e+001dB,-1.71058658466932e-003°)
1.31371149496008e+002	(7.61755117913230e+001dB,-1.71252398976493e-003°)
1.31522483219226e+002	(7.61755117639341e+001dB,-1.71446351709107e-003°)
1.31673991272164e+002	(7.61755117364862e+001dB,-1.71640516872901e-003°)
1.31825673855643e+002	(7.61755117089793e+001dB,-1.71834894678571e-003°)
1.31977531170714e+002	(7.61755116814132e+001dB,-1.72029485335910e-003°)
1.32129563418659e+002	(7.61755116537875e+001dB,-1.72224289054265e-003°)
1.32281770800995e+002	(7.61755116261026e+001dB,-1.72419306043547e-003°)
1.32434153519468e+002	(7.61755115983581e+001dB,-1.72614536513760e-003°)
1.32586711776058e+002	(7.61755115705537e+001dB,-1.72809980674976e-003°)
1.32739445772976e+002	(7.61755115426895e+001dB,-1.73005638737325e-003°)
1.32892355712668e+002	(7.61755115147654e+001dB,-1.73201510911509e-003°)
1.33045441797811e+002	(7.61755114867812e+001dB,-1.73397597407822e-003°)
1.33198704231318e+002	(7.61755114587368e+001dB,-1.73593898437111e-003°)
1.33352143216334e+002	(7.61755114306320e+001dB,-1.73790414210803e-003°)
1.33505758956239e+002	(7.61755114024670e+001dB,-1.73987144937862e-003°)
1.33659551654646e+002	(7.61755113742413e+001dB,-1.74184090831384e-003°)
1.33813521515404e+002	(7.61755113459552e+001dB,-1.74381252101973e-003°)
1.33967668742596e+002	(7.61755113176079e+001dB,-1.74578628960378e-003°)
1.34121993540539e+002	(7.61755112891999e+001dB,-1.74776221618823e-003°)
1.34276496113788e+002	(7.61755112607308e+001dB,-1.74974030288675e-003°)
1.34431176667133e+002	(7.61755112322005e+001dB,-1.75172055181844e-003°)
1.34586035405597e+002	(7.61755112036091e+001dB,-1.75370296508794e-003°)
1.34741072534443e+002	(7.61755111749561e+001dB,-1.75568754483588e-003°)
1.34896288259167e+002	(7.61755111462417e+001dB,-1.75767429317342e-003°)
1.35051682785506e+002	(7.61755111174656e+001dB,-1.75966321222240e-003°)
1.35207256319430e+002	(7.61755110886281e+001dB,-1.76165430411015e-003°)
1.35363009067148e+002	(7.61755110597282e+001dB,-1.76364757096538e-003°)
1.35518941235106e+002	(7.61755110307665e+001dB,-1.76564301489669e-003°)
1.35675053029988e+002	(7.61755110017426e+001dB,-1.76764063805355e-003°)
1.35831344658718e+002	(7.61755109726567e+001dB,-1.76964044256122e-003°)
1.35987816328454e+002	(7.61755109435081e+001dB,-1.77164243053099e-003°)
1.36144468246597e+002	(7.61755109142972e+001dB,-1.77364660411889e-003°)
1.36301300620785e+002	(7.61755108850237e+001dB,-1.77565296544749e-003°)
1.36458313658895e+002	(7.61755108556873e+001dB,-1.77766151664974e-003°)
1.36615507569043e+002	(7.61755108262882e+001dB,-1.77967225986395e-003°)
1.36772882559587e+002	(7.61755107968259e+001dB,-1.78168519723469e-003°)
1.36930438839123e+002	(7.61755107673006e+001dB,-1.78370033087656e-003°)
1.37088176616488e+002	(7.61755107377119e+001dB,-1.78571766295530e-003°)
1.37246096100758e+002	(7.61755107080602e+001dB,-1.78773719559681e-003°)
1.37404197501254e+002	(7.61755106783447e+001dB,-1.78975893095325e-003°)
