Freq.	V(n002)/-I(R)
1.00000000000000e+002	(5.65931035169472e+001dB,-1.25878885786401e-004°)
1.00115195553817e+002	(5.65931035155072e+001dB,-1.26022562793304e-004°)
1.00230523807790e+002	(5.65931035140641e+001dB,-1.26166400826415e-004°)
1.00345984914784e+002	(5.65931035126177e+001dB,-1.26310400056660e-004°)
1.00461579027840e+002	(5.65931035111681e+001dB,-1.26454560655141e-004°)
1.00577306300174e+002	(5.65931035097153e+001dB,-1.26598882792464e-004°)
1.00693166885180e+002	(5.65931035082594e+001dB,-1.26743366639834e-004°)
1.00809160936430e+002	(5.65931035068001e+001dB,-1.26888012368612e-004°)
1.00925288607668e+002	(5.65931035053377e+001dB,-1.27032820149674e-004°)
1.01041550052821e+002	(5.65931035038720e+001dB,-1.27177790155030e-004°)
1.01157945425990e+002	(5.65931035024030e+001dB,-1.27322922556780e-004°)
1.01274474881453e+002	(5.65931035009308e+001dB,-1.27468217525068e-004°)
1.01391138573668e+002	(5.65931034994554e+001dB,-1.27613675234246e-004°)
1.01507936657269e+002	(5.65931034979767e+001dB,-1.27759295854612e-004°)
1.01624869287070e+002	(5.65931034964947e+001dB,-1.27905079559132e-004°)
1.01741936618061e+002	(5.65931034950094e+001dB,-1.28051026520906e-004°)
1.01859138805412e+002	(5.65931034935208e+001dB,-1.28197136911497e-004°)
1.01976476004472e+002	(5.65931034920290e+001dB,-1.28343410903660e-004°)
1.02093948370768e+002	(5.65931034905338e+001dB,-1.28489848671212e-004°)
1.02211556060007e+002	(5.65931034890353e+001dB,-1.28636450386050e-004°)
1.02329299228076e+002	(5.65931034875335e+001dB,-1.28783216222209e-004°)
1.02447178031038e+002	(5.65931034860284e+001dB,-1.28930146352726e-004°)
1.02565192625141e+002	(5.65931034845200e+001dB,-1.29077240951337e-004°)
1.02683343166809e+002	(5.65931034830082e+001dB,-1.29224500191282e-004°)
1.02801629812648e+002	(5.65931034814931e+001dB,-1.29371924246394e-004°)
1.02920052719443e+002	(5.65931034799746e+001dB,-1.29519513290659e-004°)
1.03038612044162e+002	(5.65931034784528e+001dB,-1.29667267498084e-004°)
1.03157307943951e+002	(5.65931034769276e+001dB,-1.29815187043362e-004°)
1.03276140576140e+002	(5.65931034753990e+001dB,-1.29963272100669e-004°)
1.03395110098237e+002	(5.65931034738671e+001dB,-1.30111522843777e-004°)
1.03514216667935e+002	(5.65931034723317e+001dB,-1.30259939448668e-004°)
1.03633460443104e+002	(5.65931034707930e+001dB,-1.30408522089287e-004°)
1.03752841581801e+002	(5.65931034692509e+001dB,-1.30557270940675e-004°)
1.03872360242262e+002	(5.65931034677054e+001dB,-1.30706186178066e-004°)
1.03992016582906e+002	(5.65931034661564e+001dB,-1.30855267977232e-004°)
1.04111810762334e+002	(5.65931034646040e+001dB,-1.31004516512956e-004°)
1.04231742939331e+002	(5.65931034630482e+001dB,-1.31153931960689e-004°)
1.04351813272863e+002	(5.65931034614890e+001dB,-1.31303514497046e-004°)
1.04472021922080e+002	(5.65931034599263e+001dB,-1.31453264297028e-004°)
1.04592369046317e+002	(5.65931034583602e+001dB,-1.31603181537400e-004°)
1.04712854805090e+002	(5.65931034567906e+001dB,-1.31753266393429e-004°)
1.04833479358100e+002	(5.65931034552175e+001dB,-1.31903519042057e-004°)
1.04954242865233e+002	(5.65931034536410e+001dB,-1.32053939659717e-004°)
1.05075145486555e+002	(5.65931034520609e+001dB,-1.32204528422974e-004°)
1.05196187382323e+002	(5.65931034504774e+001dB,-1.32355285508477e-004°)
1.05317368712972e+002	(5.65931034488904e+001dB,-1.32506211093485e-004°)
1.05438689639126e+002	(5.65931034472999e+001dB,-1.32657305354833e-004°)
1.05560150321593e+002	(5.65931034457059e+001dB,-1.32808568469431e-004°)
1.05681750921366e+002	(5.65931034441084e+001dB,-1.32960000615288e-004°)
1.05803491599623e+002	(5.65931034425073e+001dB,-1.33111601969508e-004°)
1.05925372517729e+002	(5.65931034409028e+001dB,-1.33263372710275e-004°)
1.06047393837234e+002	(5.65931034392946e+001dB,-1.33415313014891e-004°)
1.06169555719873e+002	(5.65931034376829e+001dB,-1.33567423061190e-004°)
1.06291858327569e+002	(5.65931034360677e+001dB,-1.33719703027591e-004°)
1.06414301822432e+002	(5.65931034344489e+001dB,-1.33872153092745e-004°)
1.06536886366757e+002	(5.65931034328266e+001dB,-1.34024773434165e-004°)
1.06659612123026e+002	(5.65931034312006e+001dB,-1.34177564231149e-004°)
1.06782479253910e+002	(5.65931034295711e+001dB,-1.34330525662490e-004°)
1.06905487922266e+002	(5.65931034279380e+001dB,-1.34483657907089e-004°)
1.07028638291139e+002	(5.65931034263012e+001dB,-1.34636961142334e-004°)
1.07151930523761e+002	(5.65931034246609e+001dB,-1.34790435549954e-004°)
1.07275364783553e+002	(5.65931034230170e+001dB,-1.34944081307508e-004°)
1.07398941234125e+002	(5.65931034213694e+001dB,-1.35097898595266e-004°)
1.07522660039273e+002	(5.65931034197182e+001dB,-1.35251887592576e-004°)
1.07646521362984e+002	(5.65931034180634e+001dB,-1.35406048478850e-004°)
1.07770525369433e+002	(5.65931034164049e+001dB,-1.35560381434633e-004°)
1.07894672222983e+002	(5.65931034147428e+001dB,-1.35714886639954e-004°)
1.08018962088190e+002	(5.65931034130770e+001dB,-1.35869564275124e-004°)
1.08143395129794e+002	(5.65931034114075e+001dB,-1.36024414519780e-004°)
1.08267971512730e+002	(5.65931034097344e+001dB,-1.36179437554860e-004°)
1.08392691402121e+002	(5.65931034080576e+001dB,-1.36334633561322e-004°)
1.08517554963279e+002	(5.65931034063771e+001dB,-1.36490002719147e-004°)
1.08642562361707e+002	(5.65931034046928e+001dB,-1.36645545210554e-004°)
1.08767713763100e+002	(5.65931034030049e+001dB,-1.36801261216163e-004°)
1.08893009333344e+002	(5.65931034013133e+001dB,-1.36957150916332e-004°)
1.09018449238513e+002	(5.65931033996180e+001dB,-1.37113214493912e-004°)
1.09144033644876e+002	(5.65931033979189e+001dB,-1.37269452129403e-004°)
1.09269762718892e+002	(5.65931033962160e+001dB,-1.37425864005389e-004°)
1.09395636627210e+002	(5.65931033945095e+001dB,-1.37582450302960e-004°)
1.09521655536674e+002	(5.65931033927991e+001dB,-1.37739211204375e-004°)
1.09647819614319e+002	(5.65931033910851e+001dB,-1.37896146891975e-004°)
1.09774129027372e+002	(5.65931033893672e+001dB,-1.38053257548701e-004°)
1.09900583943253e+002	(5.65931033876456e+001dB,-1.38210543355454e-004°)
1.10027184529574e+002	(5.65931033859201e+001dB,-1.38368004496411e-004°)
1.10153930954142e+002	(5.65931033841909e+001dB,-1.38525641152627e-004°)
1.10280823384956e+002	(5.65931033824579e+001dB,-1.38683453508991e-004°)
1.10407861990208e+002	(5.65931033807211e+001dB,-1.38841441747257e-004°)
1.10535046938285e+002	(5.65931033789805e+001dB,-1.38999606050849e-004°)
1.10662378397767e+002	(5.65931033772360e+001dB,-1.39157946603848e-004°)
1.10789856537430e+002	(5.65931033754877e+001dB,-1.39316463588821e-004°)
1.10917481526241e+002	(5.65931033737356e+001dB,-1.39475157189917e-004°)
1.11045253533365e+002	(5.65931033719796e+001dB,-1.39634027590970e-004°)
1.11173172728160e+002	(5.65931033702197e+001dB,-1.39793074976315e-004°)
1.11301239280180e+002	(5.65931033684560e+001dB,-1.39952299528864e-004°)
1.11429453359174e+002	(5.65931033666884e+001dB,-1.40111701434172e-004°)
1.11557815135086e+002	(5.65931033649170e+001dB,-1.40271280875896e-004°)
1.11686324778057e+002	(5.65931033631416e+001dB,-1.40431038039159e-004°)
1.11814982458423e+002	(5.65931033613624e+001dB,-1.40590973108295e-004°)
1.11943788346716e+002	(5.65931033595792e+001dB,-1.40751086268166e-004°)
1.12072742613665e+002	(5.65931033577921e+001dB,-1.40911377703707e-004°)
1.12201845430197e+002	(5.65931033560011e+001dB,-1.41071847600494e-004°)
1.12331096967433e+002	(5.65931033542062e+001dB,-1.41232496143623e-004°)
1.12460497396693e+002	(5.65931033524074e+001dB,-1.41393323518869e-004°)
1.12590046889495e+002	(5.65931033506045e+001dB,-1.41554329910941e-004°)
1.12719745617552e+002	(5.65931033487978e+001dB,-1.41715515506786e-004°)
1.12849593752777e+002	(5.65931033469871e+001dB,-1.41876880491328e-004°)
1.12979591467281e+002	(5.65931033451724e+001dB,-1.42038425051122e-004°)
1.13109738933371e+002	(5.65931033433537e+001dB,-1.42200149372357e-004°)
1.13240036323557e+002	(5.65931033415310e+001dB,-1.42362053641198e-004°)
1.13370483810542e+002	(5.65931033397044e+001dB,-1.42524138044436e-004°)
1.13501081567232e+002	(5.65931033378737e+001dB,-1.42686402768521e-004°)
1.13631829766732e+002	(5.65931033360390e+001dB,-1.42848848000919e-004°)
1.13762728582344e+002	(5.65931033342003e+001dB,-1.43011473927112e-004°)
1.13893778187572e+002	(5.65931033323576e+001dB,-1.43174280736338e-004°)
1.14024978756118e+002	(5.65931033305109e+001dB,-1.43337268613208e-004°)
1.14156330461885e+002	(5.65931033286601e+001dB,-1.43500437747659e-004°)
1.14287833478978e+002	(5.65931033268052e+001dB,-1.43663788326014e-004°)
1.14419487981699e+002	(5.65931033249462e+001dB,-1.43827320535753e-004°)
1.14551294144554e+002	(5.65931033230833e+001dB,-1.43991034565437e-004°)
1.14683252142249e+002	(5.65931033212162e+001dB,-1.44154930602726e-004°)
1.14815362149689e+002	(5.65931033193450e+001dB,-1.44319008835814e-004°)
1.14947624341984e+002	(5.65931033174697e+001dB,-1.44483269453567e-004°)
1.15080038894444e+002	(5.65931033155904e+001dB,-1.44647712642776e-004°)
1.15212605982582e+002	(5.65931033137069e+001dB,-1.44812338594042e-004°)
1.15345325782110e+002	(5.65931033118193e+001dB,-1.44977147495356e-004°)
1.15478198468947e+002	(5.65931033099276e+001dB,-1.45142139534844e-004°)
1.15611224219211e+002	(5.65931033080317e+001dB,-1.45307314902767e-004°)
1.15744403209225e+002	(5.65931033061317e+001dB,-1.45472673787401e-004°)
1.15877735615514e+002	(5.65931033042275e+001dB,-1.45638216378672e-004°)
1.16011221614806e+002	(5.65931033023192e+001dB,-1.45803942866570e-004°)
1.16144861384035e+002	(5.65931033004067e+001dB,-1.45969853439568e-004°)
1.16278655100336e+002	(5.65931032984900e+001dB,-1.46135948287847e-004°)
1.16412602941050e+002	(5.65931032965691e+001dB,-1.46302227601642e-004°)
1.16546705083721e+002	(5.65931032946440e+001dB,-1.46468691571229e-004°)
1.16680961706097e+002	(5.65931032927147e+001dB,-1.46635340386009e-004°)
1.16815372986133e+002	(5.65931032907812e+001dB,-1.46802174237449e-004°)
1.16949939101988e+002	(5.65931032888435e+001dB,-1.46969193315562e-004°)
1.17084660232025e+002	(5.65931032869015e+001dB,-1.47136397811002e-004°)
1.17219536554814e+002	(5.65931032849553e+001dB,-1.47303787914480e-004°)
1.17354568249130e+002	(5.65931032830048e+001dB,-1.47471363817276e-004°)
1.17489755493954e+002	(5.65931032810501e+001dB,-1.47639125710770e-004°)
1.17625098468473e+002	(5.65931032790911e+001dB,-1.47807073785938e-004°)
1.17760597352082e+002	(5.65931032771279e+001dB,-1.47975208233190e-004°)
1.17896252324380e+002	(5.65931032751603e+001dB,-1.48143529246313e-004°)
1.18032063565174e+002	(5.65931032731884e+001dB,-1.48312037015438e-004°)
1.18168031254479e+002	(5.65931032712123e+001dB,-1.48480731732792e-004°)
1.18304155572518e+002	(5.65931032692318e+001dB,-1.48649613590792e-004°)
1.18440436699718e+002	(5.65931032672470e+001dB,-1.48818682780827e-004°)
1.18576874816717e+002	(5.65931032652579e+001dB,-1.48987939496483e-004°)
1.18713470104361e+002	(5.65931032632645e+001dB,-1.49157383928781e-004°)
1.18850222743703e+002	(5.65931032612667e+001dB,-1.49327016271455e-004°)
1.18987132916005e+002	(5.65931032592645e+001dB,-1.49496836717256e-004°)
1.19124200802739e+002	(5.65931032572580e+001dB,-1.49666845457955e-004°)
1.19261426585583e+002	(5.65931032552470e+001dB,-1.49837042688094e-004°)
1.19398810446429e+002	(5.65931032532318e+001dB,-1.50007428600049e-004°)
1.19536352567373e+002	(5.65931032512121e+001dB,-1.50178003387483e-004°)
1.19674053130726e+002	(5.65931032491880e+001dB,-1.50348767243495e-004°)
1.19811912319005e+002	(5.65931032471595e+001dB,-1.50519720362345e-004°)
1.19949930314939e+002	(5.65931032451265e+001dB,-1.50690862937372e-004°)
1.20088107301468e+002	(5.65931032430892e+001dB,-1.50862195162907e-004°)
1.20226443461743e+002	(5.65931032410474e+001dB,-1.51033717232956e-004°)
1.20364938979123e+002	(5.65931032390012e+001dB,-1.51205429341589e-004°)
1.20503594037181e+002	(5.65931032369505e+001dB,-1.51377331683450e-004°)
1.20642408819701e+002	(5.65931032348953e+001dB,-1.51549424453207e-004°)
1.20781383510679e+002	(5.65931032328357e+001dB,-1.51721707845140e-004°)
1.20920518294322e+002	(5.65931032307716e+001dB,-1.51894182054147e-004°)
1.21059813355050e+002	(5.65931032287030e+001dB,-1.52066847275666e-004°)
1.21199268877494e+002	(5.65931032266299e+001dB,-1.52239703704713e-004°)
1.21338885046499e+002	(5.65931032245522e+001dB,-1.52412751536397e-004°)
1.21478662047124e+002	(5.65931032224701e+001dB,-1.52585990965861e-004°)
1.21618600064638e+002	(5.65931032203834e+001dB,-1.52759422189411e-004°)
1.21758699284527e+002	(5.65931032182922e+001dB,-1.52933045402338e-004°)
1.21898959892488e+002	(5.65931032161964e+001dB,-1.53106860800555e-004°)
1.22039382074433e+002	(5.65931032140961e+001dB,-1.53280868580630e-004°)
1.22179966016489e+002	(5.65931032119912e+001dB,-1.53455068937479e-004°)
1.22320711904995e+002	(5.65931032098818e+001dB,-1.53629462068871e-004°)
1.22461619926506e+002	(5.65931032077677e+001dB,-1.53804048170477e-004°)
1.22602690267794e+002	(5.65931032056491e+001dB,-1.53978827439105e-004°)
1.22743923115842e+002	(5.65931032035258e+001dB,-1.54153800071600e-004°)
1.22885318657852e+002	(5.65931032013979e+001dB,-1.54328966264958e-004°)
1.23026877081240e+002	(5.65931031992654e+001dB,-1.54504326216142e-004°)
1.23168598573637e+002	(5.65931031971283e+001dB,-1.54679880121785e-004°)
1.23310483322892e+002	(5.65931031949865e+001dB,-1.54855628180099e-004°)
1.23452531517070e+002	(5.65931031928401e+001dB,-1.55031570588797e-004°)
1.23594743344452e+002	(5.65931031906891e+001dB,-1.55207707544189e-004°)
1.23737118993537e+002	(5.65931031885333e+001dB,-1.55384039245240e-004°)
1.23879658653038e+002	(5.65931031863729e+001dB,-1.55560565889873e-004°)
1.24022362511890e+002	(5.65931031842078e+001dB,-1.55737287675664e-004°)
1.24165230759243e+002	(5.65931031820379e+001dB,-1.55914204800739e-004°)
1.24308263584464e+002	(5.65931031798634e+001dB,-1.56091317463834e-004°)
1.24451461177140e+002	(5.65931031776841e+001dB,-1.56268625863689e-004°)
1.24594823727076e+002	(5.65931031755002e+001dB,-1.56446130198675e-004°)
1.24738351424296e+002	(5.65931031733115e+001dB,-1.56623830668782e-004°)
1.24882044459041e+002	(5.65931031711180e+001dB,-1.56801727470407e-004°)
1.25025903021774e+002	(5.65931031689198e+001dB,-1.56979820804671e-004°)
1.25169927303174e+002	(5.65931031667168e+001dB,-1.57158110870256e-004°)
1.25314117494143e+002	(5.65931031645091e+001dB,-1.57336597866862e-004°)
1.25458473785801e+002	(5.65931031622965e+001dB,-1.57515281993810e-004°)
1.25602996369489e+002	(5.65931031600792e+001dB,-1.57694163450445e-004°)
1.25747685436768e+002	(5.65931031578570e+001dB,-1.57873242437263e-004°)
1.25892541179418e+002	(5.65931031556301e+001dB,-1.58052519154776e-004°)
1.26037563789444e+002	(5.65931031533983e+001dB,-1.58231993801531e-004°)
1.26182753459069e+002	(5.65931031511617e+001dB,-1.58411666578749e-004°)
1.26328110380737e+002	(5.65931031489202e+001dB,-1.58591537686638e-004°)
1.26473634747117e+002	(5.65931031466739e+001dB,-1.58771607326558e-004°)
1.26619326751096e+002	(5.65931031444227e+001dB,-1.58951875697842e-004°)
1.26765186585786e+002	(5.65931031421666e+001dB,-1.59132343002491e-004°)
1.26911214444521e+002	(5.65931031399057e+001dB,-1.59313009441551e-004°)
1.27057410520856e+002	(5.65931031376399e+001dB,-1.59493875215068e-004°)
1.27203775008571e+002	(5.65931031353691e+001dB,-1.59674940525231e-004°)
1.27350308101668e+002	(5.65931031330935e+001dB,-1.59856205573869e-004°)
1.27497009994373e+002	(5.65931031308129e+001dB,-1.60037670561715e-004°)
1.27643880881136e+002	(5.65931031285274e+001dB,-1.60219335690712e-004°)
1.27790920956630e+002	(5.65931031262370e+001dB,-1.60401201162775e-004°)
1.27938130415754e+002	(5.65931031239416e+001dB,-1.60583267180518e-004°)
1.28085509453630e+002	(5.65931031216412e+001dB,-1.60765533944943e-004°)
1.28233058265604e+002	(5.65931031193359e+001dB,-1.60948001659841e-004°)
1.28380777047249e+002	(5.65931031170255e+001dB,-1.61130670526374e-004°)
1.28528665994363e+002	(5.65931031147102e+001dB,-1.61313540747923e-004°)
1.28676725302969e+002	(5.65931031123899e+001dB,-1.61496612526833e-004°)
1.28824955169315e+002	(5.65931031100646e+001dB,-1.61679886066588e-004°)
1.28973355789877e+002	(5.65931031077343e+001dB,-1.61863361569706e-004°)
1.29121927361355e+002	(5.65931031053989e+001dB,-1.62047039239306e-004°)
1.29270670080678e+002	(5.65931031030584e+001dB,-1.62230919279064e-004°)
1.29419584145000e+002	(5.65931031007130e+001dB,-1.62415001892187e-004°)
1.29568669751704e+002	(5.65931030983624e+001dB,-1.62599287283024e-004°)
1.29717927098397e+002	(5.65931030960068e+001dB,-1.62783775654452e-004°)
1.29867356382918e+002	(5.65931030936461e+001dB,-1.62968467210365e-004°)
1.30016957803331e+002	(5.65931030912803e+001dB,-1.63153362155325e-004°)
1.30166731557928e+002	(5.65931030889094e+001dB,-1.63338460693417e-004°)
1.30316677845232e+002	(5.65931030865334e+001dB,-1.63523763028810e-004°)
1.30466796863991e+002	(5.65931030841522e+001dB,-1.63709269366210e-004°)
1.30617088813186e+002	(5.65931030817660e+001dB,-1.63894979910411e-004°)
1.30767553892024e+002	(5.65931030793746e+001dB,-1.64080894865788e-004°)
1.30918192299943e+002	(5.65931030769780e+001dB,-1.64267014437268e-004°)
1.31069004236610e+002	(5.65931030745762e+001dB,-1.64453338830299e-004°)
1.31219989901922e+002	(5.65931030721693e+001dB,-1.64639868249499e-004°)
1.31371149496008e+002	(5.65931030697572e+001dB,-1.64826602900515e-004°)
1.31522483219226e+002	(5.65931030673399e+001dB,-1.65013542989524e-004°)
1.31673991272164e+002	(5.65931030649174e+001dB,-1.65200688720764e-004°)
1.31825673855643e+002	(5.65931030624897e+001dB,-1.65388040301112e-004°)
1.31977531170714e+002	(5.65931030600567e+001dB,-1.65575597935912e-004°)
1.32129563418659e+002	(5.65931030576185e+001dB,-1.65763361831732e-004°)
1.32281770800995e+002	(5.65931030551751e+001dB,-1.65951332194504e-004°)
1.32434153519468e+002	(5.65931030527264e+001dB,-1.66139509230341e-004°)
1.32586711776058e+002	(5.65931030502724e+001dB,-1.66327893145981e-004°)
1.32739445772976e+002	(5.65931030478132e+001dB,-1.66516484148131e-004°)
1.32892355712668e+002	(5.65931030453486e+001dB,-1.66705282443549e-004°)
1.33045441797811e+002	(5.65931030428788e+001dB,-1.66894288239130e-004°)
1.33198704231318e+002	(5.65931030404036e+001dB,-1.67083501741279e-004°)
1.33352143216334e+002	(5.65931030379232e+001dB,-1.67272923159041e-004°)
1.33505758956239e+002	(5.65931030354373e+001dB,-1.67462552697405e-004°)
1.33659551654646e+002	(5.65931030329462e+001dB,-1.67652390565015e-004°)
1.33813521515404e+002	(5.65931030304497e+001dB,-1.67842436969584e-004°)
1.33967668742596e+002	(5.65931030279478e+001dB,-1.68032692118880e-004°)
1.34121993540539e+002	(5.65931030254405e+001dB,-1.68223156220709e-004°)
1.34276496113788e+002	(5.65931030229279e+001dB,-1.68413829483409e-004°)
1.34431176667133e+002	(5.65931030204099e+001dB,-1.68604712115006e-004°)
1.34586035405597e+002	(5.65931030178864e+001dB,-1.68795804322396e-004°)
1.34741072534443e+002	(5.65931030153576e+001dB,-1.68987106316239e-004°)
1.34896288259167e+002	(5.65931030128233e+001dB,-1.69178618304192e-004°)
1.35051682785506e+002	(5.65931030102835e+001dB,-1.69370340494862e-004°)
1.35207256319430e+002	(5.65931030077384e+001dB,-1.69562273097566e-004°)
1.35363009067148e+002	(5.65931030051877e+001dB,-1.69754416321699e-004°)
1.35518941235106e+002	(5.65931030026316e+001dB,-1.69946770375010e-004°)
1.35675053029988e+002	(5.65931030000700e+001dB,-1.70139335468025e-004°)
1.35831344658718e+002	(5.65931029975029e+001dB,-1.70332111810250e-004°)
1.35987816328454e+002	(5.65931029949303e+001dB,-1.70525099609737e-004°)
1.36144468246597e+002	(5.65931029923522e+001dB,-1.70718299078147e-004°)
1.36301300620785e+002	(5.65931029897685e+001dB,-1.70911710424702e-004°)
1.36458313658895e+002	(5.65931029871794e+001dB,-1.71105333859069e-004°)
1.36615507569043e+002	(5.65931029845846e+001dB,-1.71299169591679e-004°)
1.36772882559587e+002	(5.65931029819843e+001dB,-1.71493217833381e-004°)
1.36930438839123e+002	(5.65931029793785e+001dB,-1.71687478793047e-004°)
1.37088176616488e+002	(5.65931029767670e+001dB,-1.71881952682760e-004°)
1.37246096100758e+002	(5.65931029741500e+001dB,-1.72076639712546e-004°)
1.37404197501254e+002	(5.65931029715274e+001dB,-1.72271540093543e-004°)
