Freq.	V(vout)/I(I1)
1.00000000000000e+003	(7.42835191727537e+001dB,3.55573227138016e+001°)
1.00115195553817e+003	(7.42868998171620e+001dB,3.55261071532311e+001°)
1.00230523807790e+003	(7.42902753108400e+001dB,3.54949032313372e+001°)
1.00345984914784e+003	(7.42936456576393e+001dB,3.54637109807214e+001°)
1.00461579027840e+003	(7.42970108614211e+001dB,3.54325304339176e+001°)
1.00577306300174e+003	(7.43003709260559e+001dB,3.54013616233920e+001°)
1.00693166885180e+003	(7.43037258554237e+001dB,3.53702045815429e+001°)
1.00809160936430e+003	(7.43070756534131e+001dB,3.53390593407006e+001°)
1.00925288607668e+003	(7.43104203239221e+001dB,3.53079259331273e+001°)
1.01041550052821e+003	(7.43137598708584e+001dB,3.52768043910170e+001°)
1.01157945425990e+003	(7.43170942981380e+001dB,3.52456947464953e+001°)
1.01274474881453e+003	(7.43204236096859e+001dB,3.52145970316194e+001°)
1.01391138573668e+003	(7.43237478094373e+001dB,3.51835112783778e+001°)
1.01507936657269e+003	(7.43270669013351e+001dB,3.51524375186903e+001°)
1.01624869287070e+003	(7.43303808893318e+001dB,3.51213757844080e+001°)
1.01741936618061e+003	(7.43336897773891e+001dB,3.50903261073129e+001°)
1.01859138805412e+003	(7.43369935694766e+001dB,3.50592885191181e+001°)
1.01976476004472e+003	(7.43402922695737e+001dB,3.50282630514673e+001°)
1.02093948370768e+003	(7.43435858816682e+001dB,3.49972497359351e+001°)
1.02211556060007e+003	(7.43468744097567e+001dB,3.49662486040266e+001°)
1.02329299228076e+003	(7.43501578578451e+001dB,3.49352596871774e+001°)
1.02447178031038e+003	(7.43534362299468e+001dB,3.49042830167535e+001°)
1.02565192625141e+003	(7.43567095300852e+001dB,3.48733186240511e+001°)
1.02683343166809e+003	(7.43599777622917e+001dB,3.48423665402967e+001°)
1.02801629812648e+003	(7.43632409306064e+001dB,3.48114267966466e+001°)
1.02920052719443e+003	(7.43664990390777e+001dB,3.47804994241871e+001°)
1.03038612044162e+003	(7.43697520917634e+001dB,3.47495844539346e+001°)
1.03157307943951e+003	(7.43730000927284e+001dB,3.47186819168348e+001°)
1.03276140576140e+003	(7.43762430460477e+001dB,3.46877918437634e+001°)
1.03395110098237e+003	(7.43794809558036e+001dB,3.46569142655252e+001°)
1.03514216667935e+003	(7.43827138260870e+001dB,3.46260492128548e+001°)
1.03633460443104e+003	(7.43859416609979e+001dB,3.45951967164160e+001°)
1.03752841581801e+003	(7.43891644646431e+001dB,3.45643568068015e+001°)
1.03872360242262e+003	(7.43923822411396e+001dB,3.45335295145336e+001°)
1.03992016582906e+003	(7.43955949946110e+001dB,3.45027148700631e+001°)
1.04111810762334e+003	(7.43988027291904e+001dB,3.44719129037701e+001°)
1.04231742939331e+003	(7.44020054490180e+001dB,3.44411236459633e+001°)
1.04351813272863e+003	(7.44052031582431e+001dB,3.44103471268801e+001°)
1.04472021922080e+003	(7.44083958610224e+001dB,3.43795833766868e+001°)
1.04592369046317e+003	(7.44115835615212e+001dB,3.43488324254776e+001°)
1.04712854805090e+003	(7.44147662639127e+001dB,3.43180943032758e+001°)
1.04833479358100e+003	(7.44179439723774e+001dB,3.42873690400325e+001°)
1.04954242865232e+003	(7.44211166911051e+001dB,3.42566566656274e+001°)
1.05075145486555e+003	(7.44242844242929e+001dB,3.42259572098682e+001°)
1.05196187382323e+003	(7.44274471761453e+001dB,3.41952707024906e+001°)
1.05317368712972e+003	(7.44306049508756e+001dB,3.41645971731582e+001°)
1.05438689639126e+003	(7.44337577527039e+001dB,3.41339366514628e+001°)
1.05560150321593e+003	(7.44369055858592e+001dB,3.41032891669236e+001°)
1.05681750921366e+003	(7.44400484545776e+001dB,3.40726547489876e+001°)
1.05803491599623e+003	(7.44431863631029e+001dB,3.40420334270297e+001°)
1.05925372517729e+003	(7.44463193156868e+001dB,3.40114252303518e+001°)
1.06047393837234e+003	(7.44494473165890e+001dB,3.39808301881836e+001°)
1.06169555719873e+003	(7.44525703700758e+001dB,3.39502483296823e+001°)
1.06291858327569e+003	(7.44556884804223e+001dB,3.39196796839319e+001°)
1.06414301822432e+003	(7.44588016519103e+001dB,3.38891242799438e+001°)
1.06536886366757e+003	(7.44619098888295e+001dB,3.38585821466567e+001°)
1.06659612123026e+003	(7.44650131954767e+001dB,3.38280533129360e+001°)
1.06782479253910e+003	(7.44681115761569e+001dB,3.37975378075743e+001°)
1.06905487922266e+003	(7.44712050351812e+001dB,3.37670356592910e+001°)
1.07028638291139e+003	(7.44742935768698e+001dB,3.37365468967323e+001°)
1.07151930523761e+003	(7.44773772055487e+001dB,3.37060715484708e+001°)
1.07275364783553e+003	(7.44804559255523e+001dB,3.36756096430064e+001°)
1.07398941234125e+003	(7.44835297412213e+001dB,3.36451612087650e+001°)
1.07522660039273e+003	(7.44865986569043e+001dB,3.36147262740991e+001°)
1.07646521362984e+003	(7.44896626769570e+001dB,3.35843048672876e+001°)
1.07770525369433e+003	(7.44927218057422e+001dB,3.35538970165361e+001°)
1.07894672222983e+003	(7.44957760476296e+001dB,3.35235027499760e+001°)
1.08018962088190e+003	(7.44988254069961e+001dB,3.34931220956651e+001°)
1.08143395129794e+003	(7.45018698882260e+001dB,3.34627550815873e+001°)
1.08267971512730e+003	(7.45049094957101e+001dB,3.34324017356527e+001°)
1.08392691402121e+003	(7.45079442338463e+001dB,3.34020620856971e+001°)
1.08517554963279e+003	(7.45109741070399e+001dB,3.33717361594825e+001°)
1.08642562361707e+003	(7.45139991197023e+001dB,3.33414239846966e+001°)
1.08767713763101e+003	(7.45170192762527e+001dB,3.33111255889529e+001°)
1.08893009333344e+003	(7.45200345811162e+001dB,3.32808409997907e+001°)
1.09018449238513e+003	(7.45230450387254e+001dB,3.32505702446750e+001°)
1.09144033644876e+003	(7.45260506535192e+001dB,3.32203133509962e+001°)
1.09269762718892e+003	(7.45290514299438e+001dB,3.31900703460704e+001°)
1.09395636627210e+003	(7.45320473724513e+001dB,3.31598412571392e+001°)
1.09521655536674e+003	(7.45350384855011e+001dB,3.31296261113696e+001°)
1.09647819614319e+003	(7.45380247735590e+001dB,3.30994249358538e+001°)
1.09774129027372e+003	(7.45410062410973e+001dB,3.30692377576095e+001°)
1.09900583943253e+003	(7.45439828925946e+001dB,3.30390646035794e+001°)
1.10027184529574e+003	(7.45469547325371e+001dB,3.30089055006317e+001°)
1.10153930954142e+003	(7.45499217654161e+001dB,3.29787604755597e+001°)
1.10280823384956e+003	(7.45528839957299e+001dB,3.29486295550813e+001°)
1.10407861990208e+003	(7.45558414279838e+001dB,3.29185127658400e+001°)
1.10535046938285e+003	(7.45587940666882e+001dB,3.28884101344039e+001°)
1.10662378397767e+003	(7.45617419163612e+001dB,3.28583216872662e+001°)
1.10789856537430e+003	(7.45646849815256e+001dB,3.28282474508448e+001°)
1.10917481526241e+003	(7.45676232667125e+001dB,3.27981874514827e+001°)
1.11045253533365e+003	(7.45705567764574e+001dB,3.27681417154472e+001°)
1.11173172728160e+003	(7.45734855153029e+001dB,3.27381102689308e+001°)
1.11301239280180e+003	(7.45764094877978e+001dB,3.27080931380503e+001°)
1.11429453359174e+003	(7.45793286984963e+001dB,3.26780903488472e+001°)
1.11557815135086e+003	(7.45822431519593e+001dB,3.26481019272878e+001°)
1.11686324778057e+003	(7.45851528527539e+001dB,3.26181278992625e+001°)
1.11814982458423e+003	(7.45880578054524e+001dB,3.25881682905866e+001°)
1.11943788346716e+003	(7.45909580146341e+001dB,3.25582231269995e+001°)
1.12072742613665e+003	(7.45938534848831e+001dB,3.25282924341653e+001°)
1.12201845430197e+003	(7.45967442207905e+001dB,3.24983762376720e+001°)
1.12331096967433e+003	(7.45996302269526e+001dB,3.24684745630325e+001°)
1.12460497396693e+003	(7.46025115079719e+001dB,3.24385874356833e+001°)
1.12590046889495e+003	(7.46053880684562e+001dB,3.24087148809857e+001°)
1.12719745617552e+003	(7.46082599130195e+001dB,3.23788569242249e+001°)
1.12849593752777e+003	(7.46111270462812e+001dB,3.23490135906102e+001°)
1.12979591467281e+003	(7.46139894728670e+001dB,3.23191849052752e+001°)
1.13109738933371e+003	(7.46168471974072e+001dB,3.22893708932774e+001°)
1.13240036323556e+003	(7.46197002245389e+001dB,3.22595715795984e+001°)
1.13370483810542e+003	(7.46225485589039e+001dB,3.22297869891439e+001°)
1.13501081567232e+003	(7.46253922051501e+001dB,3.22000171467434e+001°)
1.13631829766732e+003	(7.46282311679302e+001dB,3.21702620771504e+001°)
1.13762728582344e+003	(7.46310654519031e+001dB,3.21405218050423e+001°)
1.13893778187572e+003	(7.46338950617330e+001dB,3.21107963550204e+001°)
1.14024978756118e+003	(7.46367200020894e+001dB,3.20810857516098e+001°)
1.14156330461885e+003	(7.46395402776467e+001dB,3.20513900192594e+001°)
1.14287833478978e+003	(7.46423558930857e+001dB,3.20217091823420e+001°)
1.14419487981699e+003	(7.46451668530913e+001dB,3.19920432651538e+001°)
1.14551294144554e+003	(7.46479731623545e+001dB,3.19623922919152e+001°)
1.14683252142249e+003	(7.46507748255712e+001dB,3.19327562867700e+001°)
1.14815362149689e+003	(7.46535718474427e+001dB,3.19031352737857e+001°)
1.14947624341984e+003	(7.46563642326749e+001dB,3.18735292769535e+001°)
1.15080038894444e+003	(7.46591519859798e+001dB,3.18439383201882e+001°)
1.15212605982582e+003	(7.46619351120732e+001dB,3.18143624273281e+001°)
1.15345325782110e+003	(7.46647136156771e+001dB,3.17848016221353e+001°)
1.15478198468947e+003	(7.46674875015181e+001dB,3.17552559282953e+001°)
1.15611224219211e+003	(7.46702567743274e+001dB,3.17257253694170e+001°)
1.15744403209225e+003	(7.46730214388418e+001dB,3.16962099690331e+001°)
1.15877735615514e+003	(7.46757814998022e+001dB,3.16667097505996e+001°)
1.16011221614806e+003	(7.46785369619555e+001dB,3.16372247374960e+001°)
1.16144861384035e+003	(7.46812878300525e+001dB,3.16077549530252e+001°)
1.16278655100336e+003	(7.46840341088488e+001dB,3.15783004204138e+001°)
1.16412602941050e+003	(7.46867758031055e+001dB,3.15488611628115e+001°)
1.16546705083721e+003	(7.46895129175876e+001dB,3.15194372032914e+001°)
1.16680961706097e+003	(7.46922454570654e+001dB,3.14900285648503e+001°)
1.16815372986133e+003	(7.46949734263137e+001dB,3.14606352704082e+001°)
1.16949939101988e+003	(7.46976968301116e+001dB,3.14312573428083e+001°)
1.17084660232025e+003	(7.47004156732434e+001dB,3.14018948048174e+001°)
1.17219536554814e+003	(7.47031299604973e+001dB,3.13725476791256e+001°)
1.17354568249130e+003	(7.47058396966666e+001dB,3.13432159883461e+001°)
1.17489755493954e+003	(7.47085448865484e+001dB,3.13138997550157e+001°)
1.17625098468473e+003	(7.47112455349452e+001dB,3.12845990015944e+001°)
1.17760597352082e+003	(7.47139416466631e+001dB,3.12553137504654e+001°)
1.17896252324380e+003	(7.47166332265129e+001dB,3.12260440239353e+001°)
1.18032063565174e+003	(7.47193202793096e+001dB,3.11967898442340e+001°)
1.18168031254479e+003	(7.47220028098726e+001dB,3.11675512335146e+001°)
1.18304155572518e+003	(7.47246808230260e+001dB,3.11383282138536e+001°)
1.18440436699718e+003	(7.47273543235974e+001dB,3.11091208072505e+001°)
1.18576874816717e+003	(7.47300233164191e+001dB,3.10799290356284e+001°)
1.18713470104361e+003	(7.47326878063271e+001dB,3.10507529208334e+001°)
1.18850222743703e+003	(7.47353477981623e+001dB,3.10215924846349e+001°)
1.18987132916005e+003	(7.47380032967691e+001dB,3.09924477487258e+001°)
1.19124200802739e+003	(7.47406543069961e+001dB,3.09633187347220e+001°)
1.19261426585583e+003	(7.47433008336959e+001dB,3.09342054641626e+001°)
1.19398810446428e+003	(7.47459428817255e+001dB,3.09051079585101e+001°)
1.19536352567373e+003	(7.47485804559450e+001dB,3.08760262391504e+001°)
1.19674053130726e+003	(7.47512135612193e+001dB,3.08469603273922e+001°)
1.19811912319005e+003	(7.47538422024170e+001dB,3.08179102444680e+001°)
1.19949930314939e+003	(7.47564663844103e+001dB,3.07888760115332e+001°)
1.20088107301468e+003	(7.47590861120754e+001dB,3.07598576496666e+001°)
1.20226443461743e+003	(7.47617013902918e+001dB,3.07308551798702e+001°)
1.20364938979123e+003	(7.47643122239439e+001dB,3.07018686230694e+001°)
1.20503594037181e+003	(7.47669186179189e+001dB,3.06728980001128e+001°)
1.20642408819701e+003	(7.47695205771079e+001dB,3.06439433317723e+001°)
1.20781383510679e+003	(7.47721181064056e+001dB,3.06150046387431e+001°)
1.20920518294322e+003	(7.47747112107104e+001dB,3.05860819416437e+001°)
1.21059813355050e+003	(7.47772998949245e+001dB,3.05571752610160e+001°)
1.21199268877494e+003	(7.47798841639535e+001dB,3.05282846173252e+001°)
1.21338885046499e+003	(7.47824640227063e+001dB,3.04994100309597e+001°)
1.21478662047124e+003	(7.47850394760957e+001dB,3.04705515222314e+001°)
1.21618600064638e+003	(7.47876105290373e+001dB,3.04417091113754e+001°)
1.21758699284527e+003	(7.47901771864510e+001dB,3.04128828185505e+001°)
1.21898959892488e+003	(7.47927394532597e+001dB,3.03840726638387e+001°)
1.22039382074433e+003	(7.47952973343890e+001dB,3.03552786672452e+001°)
1.22179966016488e+003	(7.47978508347691e+001dB,3.03265008486990e+001°)
1.22320711904994e+003	(7.48003999593325e+001dB,3.02977392280522e+001°)
1.22461619926506e+003	(7.48029447130152e+001dB,3.02689938250806e+001°)
1.22602690267794e+003	(7.48054851007565e+001dB,3.02402646594833e+001°)
1.22743923115842e+003	(7.48080211274990e+001dB,3.02115517508830e+001°)
1.22885318657852e+003	(7.48105527981883e+001dB,3.01828551188258e+001°)
1.23026877081240e+003	(7.48130801177730e+001dB,3.01541747827815e+001°)
1.23168598573637e+003	(7.48156030912049e+001dB,3.01255107621432e+001°)
1.23310483322892e+003	(7.48181217234394e+001dB,3.00968630762279e+001°)
1.23452531517070e+003	(7.48206360194334e+001dB,3.00682317442758e+001°)
1.23594743344452e+003	(7.48231459841488e+001dB,3.00396167854509e+001°)
1.23737118993537e+003	(7.48256516225488e+001dB,3.00110182188410e+001°)
1.23879658653038e+003	(7.48281529396005e+001dB,2.99824360634572e+001°)
1.24022362511890e+003	(7.48306499402734e+001dB,2.99538703382346e+001°)
1.24165230759243e+003	(7.48331426295401e+001dB,2.99253210620318e+001°)
1.24308263584464e+003	(7.48356310123757e+001dB,2.98967882536313e+001°)
1.24451461177140e+003	(7.48381150937586e+001dB,2.98682719317391e+001°)
1.24594823727076e+003	(7.48405948786694e+001dB,2.98397721149852e+001°)
1.24738351424296e+003	(7.48430703720919e+001dB,2.98112888219234e+001°)
1.24882044459041e+003	(7.48455415790123e+001dB,2.97828220710313e+001°)
1.25025903021774e+003	(7.48480085044196e+001dB,2.97543718807103e+001°)
1.25169927303174e+003	(7.48504711533054e+001dB,2.97259382692858e+001°)
1.25314117494143e+003	(7.48529295306635e+001dB,2.96975212550071e+001°)
1.25458473785801e+003	(7.48553836414912e+001dB,2.96691208560474e+001°)
1.25602996369489e+003	(7.48578334907873e+001dB,2.96407370905040e+001°)
1.25747685436767e+003	(7.48602790835539e+001dB,2.96123699763981e+001°)
1.25892541179418e+003	(7.48627204247947e+001dB,2.95840195316751e+001°)
1.26037563789444e+003	(7.48651575195170e+001dB,2.95556857742043e+001°)
1.26182753459069e+003	(7.48675903727292e+001dB,2.95273687217793e+001°)
1.26328110380737e+003	(7.48700189894433e+001dB,2.94990683921178e+001°)
1.26473634747117e+003	(7.48724433746727e+001dB,2.94707848028616e+001°)
1.26619326751096e+003	(7.48748635334330e+001dB,2.94425179715768e+001°)
1.26765186585786e+003	(7.48772794707436e+001dB,2.94142679157539e+001°)
1.26911214444521e+003	(7.48796911916242e+001dB,2.93860346528076e+001°)
1.27057410520856e+003	(7.48820987010980e+001dB,2.93578182000768e+001°)
1.27203775008571e+003	(7.48845020041896e+001dB,2.93296185748249e+001°)
1.27350308101668e+003	(7.48869011059262e+001dB,2.93014357942398e+001°)
1.27497009994373e+003	(7.48892960113370e+001dB,2.92732698754337e+001°)
1.27643880881136e+003	(7.48916867254533e+001dB,2.92451208354435e+001°)
1.27790920956630e+003	(7.48940732533083e+001dB,2.92169886912305e+001°)
1.27938130415754e+003	(7.48964555999377e+001dB,2.91888734596805e+001°)
1.28085509453630e+003	(7.48988337703782e+001dB,2.91607751576040e+001°)
1.28233058265604e+003	(7.49012077696694e+001dB,2.91326938017364e+001°)
1.28380777047249e+003	(7.49035776028527e+001dB,2.91046294087375e+001°)
1.28528665994363e+003	(7.49059432749708e+001dB,2.90765819951920e+001°)
1.28676725302969e+003	(7.49083047910691e+001dB,2.90485515776093e+001°)
1.28824955169315e+003	(7.49106621561939e+001dB,2.90205381724238e+001°)
1.28973355789877e+003	(7.49130153753937e+001dB,2.89925417959946e+001°)
1.29121927361355e+003	(7.49153644537194e+001dB,2.89645624646059e+001°)
1.29270670080678e+003	(7.49177093962226e+001dB,2.89366001944669e+001°)
1.29419584145000e+003	(7.49200502079574e+001dB,2.89086550017118e+001°)
1.29568669751704e+003	(7.49223868939789e+001dB,2.88807269023997e+001°)
1.29717927098397e+003	(7.49247194593442e+001dB,2.88528159125150e+001°)
1.29867356382918e+003	(7.49270479091122e+001dB,2.88249220479674e+001°)
1.30016957803331e+003	(7.49293722483432e+001dB,2.87970453245916e+001°)
1.30166731557928e+003	(7.49316924820989e+001dB,2.87691857581476e+001°)
1.30316677845232e+003	(7.49340086154427e+001dB,2.87413433643209e+001°)
1.30466796863991e+003	(7.49363206534394e+001dB,2.87135181587224e+001°)
1.30617088813186e+003	(7.49386286011553e+001dB,2.86857101568882e+001°)
1.30767553892024e+003	(7.49409324636580e+001dB,2.86579193742800e+001°)
1.30918192299943e+003	(7.49432322460169e+001dB,2.86301458262852e+001°)
1.31069004236610e+003	(7.49455279533024e+001dB,2.86023895282166e+001°)
1.31219989901922e+003	(7.49478195905860e+001dB,2.85746504953126e+001°)
1.31371149496008e+003	(7.49501071629412e+001dB,2.85469287427377e+001°)
1.31522483219226e+003	(7.49523906754422e+001dB,2.85192242855817e+001°)
1.31673991272164e+003	(7.49546701331646e+001dB,2.84915371388605e+001°)
1.31825673855643e+003	(7.49569455411857e+001dB,2.84638673175158e+001°)
1.31977531170714e+003	(7.49592169045830e+001dB,2.84362148364152e+001°)
1.32129563418660e+003	(7.49614842284360e+001dB,2.84085797103523e+001°)
1.32281770800995e+003	(7.49637475178251e+001dB,2.83809619540469e+001°)
1.32434153519468e+003	(7.49660067778313e+001dB,2.83533615821447e+001°)
1.32586711776058e+003	(7.49682620135374e+001dB,2.83257786092177e+001°)
1.32739445772976e+003	(7.49705132300273e+001dB,2.82982130497642e+001°)
1.32892355712668e+003	(7.49727604323850e+001dB,2.82706649182085e+001°)
1.33045441797811e+003	(7.49750036256964e+001dB,2.82431342289016e+001°)
1.33198704231318e+003	(7.49772428150476e+001dB,2.82156209961208e+001°)
1.33352143216334e+003	(7.49794780055262e+001dB,2.81881252340697e+001°)
1.33505758956239e+003	(7.49817092022204e+001dB,2.81606469568787e+001°)
1.33659551654646e+003	(7.49839364102194e+001dB,2.81331861786047e+001°)
1.33813521515404e+003	(7.49861596346134e+001dB,2.81057429132313e+001°)
1.33967668742596e+003	(7.49883788804929e+001dB,2.80783171746687e+001°)
1.34121993540539e+003	(7.49905941529495e+001dB,2.80509089767540e+001°)
1.34276496113788e+003	(7.49928054570755e+001dB,2.80235183332514e+001°)
1.34431176667133e+003	(7.49950127979641e+001dB,2.79961452578515e+001°)
1.34586035405597e+003	(7.49972161807084e+001dB,2.79687897641724e+001°)
1.34741072534443e+003	(7.49994156104037e+001dB,2.79414518657591e+001°)
1.34896288259168e+003	(7.50016110921444e+001dB,2.79141315760836e+001°)
1.35051682785506e+003	(7.50038026310262e+001dB,2.78868289085452e+001°)
1.35207256319430e+003	(7.50059902321454e+001dB,2.78595438764705e+001°)
1.35363009067148e+003	(7.50081739005985e+001dB,2.78322764931135e+001°)
1.35518941235106e+003	(7.50103536414829e+001dB,2.78050267716554e+001°)
1.35675053029988e+003	(7.50125294598959e+001dB,2.77777947252051e+001°)
1.35831344658718e+003	(7.50147013609362e+001dB,2.77505803667990e+001°)
1.35987816328454e+003	(7.50168693497024e+001dB,2.77233837094010e+001°)
1.36144468246597e+003	(7.50190334312933e+001dB,2.76962047659028e+001°)
1.36301300620785e+003	(7.50211936108082e+001dB,2.76690435491238e+001°)
1.36458313658895e+003	(7.50233498933473e+001dB,2.76419000718113e+001°)
1.36615507569043e+003	(7.50255022840100e+001dB,2.76147743466406e+001°)
1.36772882559587e+003	(7.50276507878969e+001dB,2.75876663862147e+001°)
1.36930438839123e+003	(7.50297954101088e+001dB,2.75605762030651e+001°)
1.37088176616488e+003	(7.50319361557465e+001dB,2.75335038096509e+001°)
1.37246096100759e+003	(7.50340730299110e+001dB,2.75064492183599e+001°)
1.37404197501254e+003	(7.50362060377034e+001dB,2.74794124415078e+001°)
1.37562481027533e+003	(7.50383351842255e+001dB,2.74523934913388e+001°)
1.37720946889397e+003	(7.50404604745783e+001dB,2.74253923800258e+001°)
1.37879595296888e+003	(7.50425819138637e+001dB,2.73984091196698e+001°)
1.38038426460291e+003	(7.50446995071833e+001dB,2.73714437223007e+001°)
